Title: C:\users\meeee\Documents\workspace\spicelib\examples\testfiles\ac_ltspice.net
Date: Tue Feb 11 20:42:56 2025
Plotname: AC Analysis
Flags: complex forward log
No. Variables: 6
No. Points:           51
Offset:    0.0000000000000000e+00
Command: Linear Technology Corporation LTspice
Variables:
	0	frequency	frequency
	1	V(out)	voltage
	2	V(in)	voltage
	3	I(Vin)	device_current
	4	I(C1)	device_current
	5	I(R1)	device_current
Values:
0		1.000000000000000e+00,0.000000000000000e+00
	9.999605231408795e-01,-6.282937266758386e-03
	1.000000000000000e+00,0.000000000000000e+00
	-3.947685912053522e-07,-6.282937266758386e-05
	3.947685912042735e-07,6.282937266758386e-05
	3.947685912053522e-07,6.282937266758386e-05
1		1.258925411794167e+00,0.000000000000000e+00
	9.999374348393341e-01,-7.909566755942099e-03
	1.000000000000000e+00,0.000000000000000e+00
	-6.256516066598800e-07,-7.909566755942099e-05
	6.256516066603357e-07,7.909566755942098e-05
	6.256516066593943e-07,7.909566755942099e-05
2		1.584893192461114e+00,0.000000000000000e+00
	9.999008445312640e-01,-9.957190212550917e-03
	1.000000000000000e+00,0.000000000000000e+00
	-9.915546873590780e-07,-9.957190212550918e-05
	9.915546873590003e-07,9.957190212550918e-05
	9.915546873595638e-07,9.957190212550918e-05
3		1.995262314968880e+00,0.000000000000000e+00
	9.998428582860953e-01,-1.253463283812141e-02
	1.000000000000000e+00,0.000000000000000e+00
	-1.571417139046086e-06,-1.253463283812141e-04
	1.571417139047605e-06,1.253463283812141e-04
	1.571417139046849e-06,1.253463283812141e-04
4		2.511886431509581e+00,0.000000000000000e+00
	9.997509700560016e-01,-1.577871756783715e-02
	1.000000000000000e+00,0.000000000000000e+00
	-2.490299439984051e-06,-1.577871756783715e-04
	2.490299439985806e-06,1.577871756783715e-04
	2.490299439984467e-06,1.577871756783715e-04
5		3.162277660168380e+00,0.000000000000000e+00
	9.996053716169974e-01,-1.986133559058595e-02
	1.000000000000000e+00,0.000000000000000e+00
	-3.946283830026653e-06,-1.986133559058595e-04
	3.946283830025473e-06,1.986133559058595e-04
	3.946283830026376e-06,1.986133559058595e-04
6		3.981071705534974e+00,0.000000000000000e+00
	9.993747004910177e-01,-2.499817012315517e-02
	1.000000000000000e+00,0.000000000000000e+00
	-6.252995089823035e-06,-2.499817012315517e-04
	6.252995089821411e-06,2.499817012315517e-04
	6.252995089822689e-06,2.499817012315517e-04
7		5.011872336272725e+00,0.000000000000000e+00
	9.990093293863226e-01,-3.145932588935495e-02
	1.000000000000000e+00,0.000000000000000e+00
	-9.906706136774551e-06,-3.145932588935495e-04
	9.906706136774424e-06,3.145932588935494e-04
	9.906706136774135e-06,3.145932588935495e-04
8		6.309573444801935e+00,0.000000000000000e+00
	9.984308021389245e-01,-3.958200953903548e-02
	1.000000000000000e+00,0.000000000000000e+00
	-1.569197861075490e-05,-3.958200953903549e-04
	1.569197861075500e-05,3.958200953903549e-04
	1.569197861075455e-05,3.958200953903549e-04
9		7.943282347242819e+00,0.000000000000000e+00
	9.975152695106657e-01,-4.978510423540043e-02
	1.000000000000000e+00,0.000000000000000e+00
	-2.484730489334293e-05,-4.978510423540043e-04
	2.484730489334314e-05,4.978510423540043e-04
	2.484730489334286e-05,4.978510423540043e-04
10		1.000000000000001e+01,0.000000000000000e+00
	9.960676824071725e-01,-6.258477827057171e-02
	1.000000000000000e+00,0.000000000000000e+00
	-3.932317592827451e-05,-6.258477827057171e-04
	3.932317592827486e-05,6.258477827057172e-04
	3.932317592827528e-05,6.258477827057171e-04
11		1.258925411794168e+01,0.000000000000000e+00
	9.937819979329331e-01,-7.860876870528430e-02
	1.000000000000000e+00,0.000000000000000e+00
	-6.218002067066852e-05,-7.860876870528430e-04
	6.218002067066932e-05,7.860876870528430e-04
	6.218002067066908e-05,7.860876870528430e-04
12		1.584893192461115e+01,0.000000000000000e+00
	9.901808418263092e-01,-9.860396699144985e-02
	1.000000000000000e+00,0.000000000000000e+00
	-9.819158173690785e-05,-9.860396699144986e-04
	9.819158173690892e-05,9.860396699144986e-04
	9.819158173690834e-05,9.860396699144986e-04
13		1.995262314968881e+01,0.000000000000000e+00
	9.845265495375669e-01,-1.234261835803881e-01
	1.000000000000000e+00,0.000000000000000e+00
	-1.547345046243303e-04,-1.234261835803882e-03
	1.547345046243305e-04,1.234261835803882e-03
	1.547345046243309e-04,1.234261835803882e-03
14		2.511886431509582e+01,0.000000000000000e+00
	9.756961908471385e-01,-1.539906945679600e-01
	1.000000000000000e+00,0.000000000000000e+00
	-2.430380915286138e-04,-1.539906945679600e-03
	2.430380915286145e-04,1.539906945679600e-03
	2.430380915286145e-04,1.539906945679600e-03
15		3.162277660168382e+01,0.000000000000000e+00
	9.620209357541625e-01,-1.911456379958699e-01
	1.000000000000000e+00,0.000000000000000e+00
	-3.797906424583761e-04,-1.911456379958699e-03
	3.797906424583760e-04,1.911456379958699e-03
	3.797906424583753e-04,1.911456379958699e-03
16		3.981071705534976e+01,0.000000000000000e+00
	9.411152867478171e-01,-2.354088014441922e-01
	1.000000000000000e+00,0.000000000000000e+00
	-5.888471325218286e-04,-2.354088014441922e-03
	5.888471325218292e-04,2.354088014441922e-03
	5.888471325218292e-04,2.354088014441922e-03
17		5.011872336272728e+01,0.000000000000000e+00
	9.097812664019546e-01,-2.864948755318502e-01
	1.000000000000000e+00,0.000000000000000e+00
	-9.021873359804540e-04,-2.864948755318502e-03
	9.021873359804541e-04,2.864948755318502e-03
	9.021873359804544e-04,2.864948755318502e-03
18		6.309573444801939e+01,0.000000000000000e+00
	8.641799400944487e-01,-3.425973894132935e-01
	1.000000000000000e+00,0.000000000000000e+00
	-1.358200599055514e-03,-3.425973894132935e-03
	1.358200599055514e-03,3.425973894132935e-03
	1.358200599055513e-03,3.425973894132935e-03
19		7.943282347242824e+01,0.000000000000000e+00
	8.005815582254355e-01,-3.995631700429471e-01
	1.000000000000000e+00,0.000000000000000e+00
	-1.994184417745645e-03,-3.995631700429471e-03
	1.994184417745644e-03,3.995631700429471e-03
	1.994184417745645e-03,3.995631700429471e-03
20		1.000000000000001e+02,0.000000000000000e+00
	7.169568003248974e-01,-4.504772433683888e-01
	1.000000000000000e+00,0.000000000000000e+00
	-2.830431996751026e-03,-4.504772433683889e-03
	2.830431996751026e-03,4.504772433683888e-03
	2.830431996751026e-03,4.504772433683889e-03
21		1.258925411794169e+02,0.000000000000000e+00
	6.151231395586007e-01,-4.865661956385492e-01
	1.000000000000000e+00,0.000000000000000e+00
	-3.848768604413993e-03,-4.865661956385492e-03
	3.848768604413993e-03,4.865661956385493e-03
	3.848768604413993e-03,4.865661956385492e-03
22		1.584893192461115e+02,0.000000000000000e+00
	5.020954917241711e-01,-4.999956088951521e-01
	1.000000000000000e+00,0.000000000000000e+00
	-4.979045082758289e-03,-4.999956088951521e-03
	4.979045082758289e-03,4.999956088951521e-03
	4.979045082758289e-03,4.999956088951521e-03
23		1.995262314968882e+02,0.000000000000000e+00
	3.888532701177216e-01,-4.874899018815424e-01
	1.000000000000000e+00,0.000000000000000e+00
	-6.111467298822783e-03,-4.874899018815424e-03
	6.111467298822783e-03,4.874899018815424e-03
	6.111467298822784e-03,4.874899018815424e-03
24		2.511886431509583e+02,0.000000000000000e+00
	2.864574583735092e-01,-4.521057209499770e-01
	1.000000000000000e+00,0.000000000000000e+00
	-7.135425416264908e-03,-4.521057209499770e-03
	7.135425416264908e-03,4.521057209499770e-03
	7.135425416264908e-03,4.521057209499770e-03
25		3.162277660168384e+02,0.000000000000000e+00
	2.021083228643776e-01,-4.015725945496357e-01
	1.000000000000000e+00,0.000000000000000e+00
	-7.978916771356225e-03,-4.015725945496358e-03
	7.978916771356225e-03,4.015725945496357e-03
	7.978916771356225e-03,4.015725945496358e-03
26		3.981071705534978e+02,0.000000000000000e+00
	1.377997439989837e-01,-3.446896786281803e-01
	1.000000000000000e+00,0.000000000000000e+00
	-8.622002560010163e-03,-3.446896786281804e-03
	8.622002560010162e-03,3.446896786281804e-03
	8.622002560010163e-03,3.446896786281804e-03
27		5.011872336272730e+02,0.000000000000000e+00
	9.160419896210736e-02,-2.884664099936387e-01
	1.000000000000000e+00,0.000000000000000e+00
	-9.083958010378927e-03,-2.884664099936387e-03
	9.083958010378927e-03,2.884664099936386e-03
	9.083958010378927e-03,2.884664099936387e-03
28		6.309573444801943e+02,0.000000000000000e+00
	5.982062976643336e-02,-2.371542156926177e-01
	1.000000000000000e+00,0.000000000000000e+00
	-9.401793702335667e-03,-2.371542156926177e-03
	9.401793702335666e-03,2.371542156926178e-03
	9.401793702335667e-03,2.371542156926177e-03
29		7.943282347242828e+02,0.000000000000000e+00
	3.859633238788678e-02,-1.926308789215544e-01
	1.000000000000000e+00,0.000000000000000e+00
	-9.614036676121132e-03,-1.926308789215544e-03
	9.614036676121132e-03,1.926308789215544e-03
	9.614036676121132e-03,1.926308789215544e-03
30		1.000000000000002e+03,0.000000000000000e+00
	2.470452303185757e-02,-1.552230961346474e-01
	1.000000000000000e+00,0.000000000000000e+00
	-9.752954769681424e-03,-1.552230961346474e-03
	9.752954769681424e-03,1.552230961346474e-03
	9.752954769681424e-03,1.552230961346474e-03
31		1.258925411794169e+03,0.000000000000000e+00
	1.573091939939286e-02,-1.244325422638413e-01
	1.000000000000000e+00,0.000000000000000e+00
	-9.842690806006072e-03,-1.244325422638414e-03
	9.842690806006072e-03,1.244325422638414e-03
	9.842690806006072e-03,1.244325422638414e-03
32		1.584893192461116e+03,0.000000000000000e+00
	9.983497127712912e-03,-9.941743766972602e-02
	1.000000000000000e+00,0.000000000000000e+00
	-9.900165028722870e-03,-9.941743766972602e-04
	9.900165028722870e-03,9.941743766972604e-04
	9.900165028722870e-03,9.941743766972602e-04
33		1.995262314968883e+03,0.000000000000000e+00
	6.322454886315675e-03,-7.926210601874126e-02
	1.000000000000000e+00,0.000000000000000e+00
	-9.936775451136843e-03,-7.926210601874126e-04
	9.936775451136843e-03,7.926210601874125e-04
	9.936775451136843e-03,7.926210601874126e-04
34		2.511886431509585e+03,0.000000000000000e+00
	3.998528935458667e-03,-6.310737438533603e-02
	1.000000000000000e+00,0.000000000000000e+00
	-9.960014710645414e-03,-6.310737438533603e-04
	9.960014710645414e-03,6.310737438533604e-04
	9.960014710645414e-03,6.310737438533603e-04
35		3.162277660168385e+03,0.000000000000000e+00
	2.526629563608174e-03,-5.020204882927065e-02
	1.000000000000000e+00,0.000000000000000e+00
	-9.974733704363919e-03,-5.020204882927066e-04
	9.974733704363919e-03,5.020204882927067e-04
	9.974733704363919e-03,5.020204882927066e-04
36		3.981071705534981e+03,0.000000000000000e+00
	1.595683349481161e-03,-3.991412211397553e-02
	1.000000000000000e+00,0.000000000000000e+00
	-9.984043166505188e-03,-3.991412211397553e-04
	9.984043166505191e-03,3.991412211397552e-04
	9.984043166505190e-03,3.991412211397553e-04
37		5.011872336272733e+03,0.000000000000000e+00
	1.007401362519542e-03,-3.172359539860410e-02
	1.000000000000000e+00,0.000000000000000e+00
	-9.989925986374805e-03,-3.172359539860410e-04
	9.989925986374805e-03,3.172359539860410e-04
	9.989925986374805e-03,3.172359539860410e-04
38		6.309573444801946e+03,0.000000000000000e+00
	6.358636861541675e-04,-2.520831933165712e-02
	1.000000000000000e+00,0.000000000000000e+00
	-9.993641363138458e-03,-2.520831933165712e-04
	9.993641363138458e-03,2.520831933165711e-04
	9.993641363138458e-03,2.520831933165712e-04
39		7.943282347242833e+03,0.000000000000000e+00
	4.012970315590287e-04,-2.002837967114391e-02
	1.000000000000000e+00,0.000000000000000e+00
	-9.995987029684411e-03,-2.002837967114391e-04
	9.995987029684409e-03,2.002837967114391e-04
	9.995987029684411e-03,2.002837967114391e-04
40		1.000000000000002e+04,0.000000000000000e+00
	2.532388129651588e-04,-1.591146388830288e-02
	1.000000000000000e+00,0.000000000000000e+00
	-9.997467611870349e-03,-1.591146388830288e-04
	9.997467611870347e-03,1.591146388830289e-04
	9.997467611870349e-03,1.591146388830288e-04
41		1.258925411794170e+04,0.000000000000000e+00
	1.597978230010175e-04,-1.264010631509014e-02
	1.000000000000000e+00,0.000000000000000e+00
	-9.998402021769990e-03,-1.264010631509014e-04
	9.998402021769989e-03,1.264010631509014e-04
	9.998402021769990e-03,1.264010631509014e-04
42		1.584893192461117e+04,0.000000000000000e+00
	1.008315563144487e-04,-1.004098547512643e-02
	1.000000000000000e+00,0.000000000000000e+00
	-9.998991684436855e-03,-1.004098547512643e-04
	9.998991684436857e-03,1.004098547512643e-04
	9.998991684436855e-03,1.004098547512643e-04
43		1.995262314968885e+04,0.000000000000000e+00
	6.362277848842442e-05,-7.976135068470306e-03
	1.000000000000000e+00,0.000000000000000e+00
	-9.999363772215115e-03,-7.976135068470306e-05
	9.999363772215115e-03,7.976135068470308e-05
	9.999363772215117e-03,7.976135068470306e-05
44		2.511886431509586e+04,0.000000000000000e+00
	4.014420193006481e-05,-6.335818050821553e-03
	1.000000000000000e+00,0.000000000000000e+00
	-9.999598557980700e-03,-6.335818050821552e-05
	9.999598557980702e-03,6.335818050821552e-05
	9.999598557980700e-03,6.335818050821552e-05
45		3.162277660168387e+04,0.000000000000000e+00
	2.532965430294552e-05,-5.032793728294297e-03
	1.000000000000000e+00,0.000000000000000e+00
	-9.999746703456970e-03,-5.032793728294297e-05
	9.999746703456970e-03,5.032793728294297e-05
	9.999746703456972e-03,5.032793728294297e-05
46		3.981071705534983e+04,0.000000000000000e+00
	1.598208081165039e-05,-3.997727527576551e-03
	1.000000000000000e+00,0.000000000000000e+00
	-9.999840179191883e-03,-3.997727527576551e-05
	9.999840179191883e-03,3.997727527576551e-05
	9.999840179191883e-03,3.997727527576551e-05
47		5.011872336272736e+04,0.000000000000000e+00
	1.008407074473731e-05,-3.175526579365149e-03
	1.000000000000000e+00,0.000000000000000e+00
	-9.999899159292553e-03,-3.175526579365150e-05
	9.999899159292551e-03,3.175526579365149e-05
	9.999899159292553e-03,3.175526579365150e-05
48		6.309573444801950e+04,0.000000000000000e+00
	6.362642176918878e-06,-2.522419809172019e-03
	1.000000000000000e+00,0.000000000000000e+00
	-9.999936373578232e-03,-2.522419809172019e-05
	9.999936373578230e-03,2.522419809172019e-05
	9.999936373578232e-03,2.522419809172019e-05
49		7.943282347242837e+04,0.000000000000000e+00
	4.014565238372311e-06,-2.003633978958796e-03
	1.000000000000000e+00,0.000000000000000e+00
	-9.999959854347616e-03,-2.003633978958796e-05
	9.999959854347618e-03,2.003633978958796e-05
	9.999959854347616e-03,2.003633978958796e-05
50		1.000000000000000e+05,0.000000000000000e+00
	2.533023174835789e-06,-1.591545399487361e-03
	1.000000000000000e+00,0.000000000000000e+00
	-9.999974669768251e-03,-1.591545399487362e-05
	9.999974669768253e-03,1.591545399487361e-05
	9.999974669768251e-03,1.591545399487362e-05
