Title: * c:\sandbox\spicelib\examples\testfiles\ac_rawtest.asc
Date: Tue Feb 11 21:04:31  2025
Command: ngspice-44.2, Build 
Plotname: AC Analysis
Flags: complex
No. Variables: 4
No. Points: 51      
Variables:
	0	frequency	frequency	grid=3
	1	v(in)	voltage
	2	v(out)	voltage
	3	i(vin)	current
Values:
0		1.000000000000000e+00,6.951594538792516e-310
	1.000000000000000e+00,0.000000000000000e+00
	9.999605231408795e-01,-6.282937266758386e-03
	-3.947685912053522e-07,-6.282937266758386e-05
1		1.258925411794167e+00,6.951594538792516e-310
	1.000000000000000e+00,0.000000000000000e+00
	9.999374348393341e-01,-7.909566755942099e-03
	-6.256516066598800e-07,-7.909566755942099e-05
2		1.584893192461114e+00,6.951594538792516e-310
	1.000000000000000e+00,0.000000000000000e+00
	9.999008445312640e-01,-9.957190212550917e-03
	-9.915546873590780e-07,-9.957190212550918e-05
3		1.995262314968880e+00,6.951594538792516e-310
	1.000000000000000e+00,0.000000000000000e+00
	9.998428582860953e-01,-1.253463283812141e-02
	-1.571417139046086e-06,-1.253463283812141e-04
4		2.511886431509581e+00,6.951594538792516e-310
	1.000000000000000e+00,0.000000000000000e+00
	9.997509700560016e-01,-1.577871756783715e-02
	-2.490299439984051e-06,-1.577871756783715e-04
5		3.162277660168380e+00,6.951594538792516e-310
	1.000000000000000e+00,0.000000000000000e+00
	9.996053716169974e-01,-1.986133559058595e-02
	-3.946283830026653e-06,-1.986133559058595e-04
6		3.981071705534974e+00,6.951594538792516e-310
	1.000000000000000e+00,0.000000000000000e+00
	9.993747004910177e-01,-2.499817012315517e-02
	-6.252995089823035e-06,-2.499817012315517e-04
7		5.011872336272725e+00,6.951594538792516e-310
	1.000000000000000e+00,0.000000000000000e+00
	9.990093293863226e-01,-3.145932588935495e-02
	-9.906706136774551e-06,-3.145932588935495e-04
8		6.309573444801935e+00,6.951594538792516e-310
	1.000000000000000e+00,0.000000000000000e+00
	9.984308021389245e-01,-3.958200953903549e-02
	-1.569197861075490e-05,-3.958200953903549e-04
9		7.943282347242818e+00,6.951594538792516e-310
	1.000000000000000e+00,0.000000000000000e+00
	9.975152695106657e-01,-4.978510423540043e-02
	-2.484730489334293e-05,-4.978510423540043e-04
10		1.000000000000001e+01,6.951594538792516e-310
	1.000000000000000e+00,0.000000000000000e+00
	9.960676824071725e-01,-6.258477827057171e-02
	-3.932317592827451e-05,-6.258477827057171e-04
11		1.258925411794168e+01,6.951594538792516e-310
	1.000000000000000e+00,0.000000000000000e+00
	9.937819979329331e-01,-7.860876870528430e-02
	-6.218002067066852e-05,-7.860876870528430e-04
12		1.584893192461115e+01,6.951594538792516e-310
	1.000000000000000e+00,0.000000000000000e+00
	9.901808418263092e-01,-9.860396699144985e-02
	-9.819158173690785e-05,-9.860396699144986e-04
13		1.995262314968881e+01,6.951594538792516e-310
	1.000000000000000e+00,0.000000000000000e+00
	9.845265495375669e-01,-1.234261835803881e-01
	-1.547345046243303e-04,-1.234261835803882e-03
14		2.511886431509582e+01,6.951594538792516e-310
	1.000000000000000e+00,0.000000000000000e+00
	9.756961908471385e-01,-1.539906945679600e-01
	-2.430380915286138e-04,-1.539906945679600e-03
15		3.162277660168382e+01,6.951594538792516e-310
	1.000000000000000e+00,0.000000000000000e+00
	9.620209357541625e-01,-1.911456379958699e-01
	-3.797906424583761e-04,-1.911456379958699e-03
16		3.981071705534977e+01,6.951594538792516e-310
	1.000000000000000e+00,0.000000000000000e+00
	9.411152867478171e-01,-2.354088014441922e-01
	-5.888471325218286e-04,-2.354088014441922e-03
17		5.011872336272729e+01,6.951594538792516e-310
	1.000000000000000e+00,0.000000000000000e+00
	9.097812664019546e-01,-2.864948755318502e-01
	-9.021873359804540e-04,-2.864948755318502e-03
18		6.309573444801940e+01,6.951594538792516e-310
	1.000000000000000e+00,0.000000000000000e+00
	8.641799400944485e-01,-3.425973894132935e-01
	-1.358200599055514e-03,-3.425973894132935e-03
19		7.943282347242825e+01,6.951594538792516e-310
	1.000000000000000e+00,0.000000000000000e+00
	8.005815582254355e-01,-3.995631700429472e-01
	-1.994184417745645e-03,-3.995631700429472e-03
20		1.000000000000001e+02,6.951594538792516e-310
	1.000000000000000e+00,0.000000000000000e+00
	7.169568003248972e-01,-4.504772433683889e-01
	-2.830431996751029e-03,-4.504772433683889e-03
21		1.258925411794169e+02,6.951594538792516e-310
	1.000000000000000e+00,0.000000000000000e+00
	6.151231395586004e-01,-4.865661956385492e-01
	-3.848768604413996e-03,-4.865661956385492e-03
22		1.584893192461116e+02,6.951594538792516e-310
	1.000000000000000e+00,0.000000000000000e+00
	5.020954917241710e-01,-4.999956088951522e-01
	-4.979045082758290e-03,-4.999956088951521e-03
23		1.995262314968883e+02,6.951594538792516e-310
	1.000000000000000e+00,0.000000000000000e+00
	3.888532701177216e-01,-4.874899018815424e-01
	-6.111467298822785e-03,-4.874899018815424e-03
24		2.511886431509584e+02,6.951594538792516e-310
	1.000000000000000e+00,0.000000000000000e+00
	2.864574583735091e-01,-4.521057209499769e-01
	-7.135425416264909e-03,-4.521057209499768e-03
25		3.162277660168385e+02,6.951594538792516e-310
	1.000000000000000e+00,0.000000000000000e+00
	2.021083228643775e-01,-4.015725945496357e-01
	-7.978916771356225e-03,-4.015725945496357e-03
26		3.981071705534980e+02,6.951594538792516e-310
	1.000000000000000e+00,0.000000000000000e+00
	1.377997439989836e-01,-3.446896786281803e-01
	-8.622002560010163e-03,-3.446896786281803e-03
27		5.011872336272732e+02,6.951594538792516e-310
	1.000000000000000e+00,0.000000000000000e+00
	9.160419896210734e-02,-2.884664099936386e-01
	-9.083958010378927e-03,-2.884664099936386e-03
28		6.309573444801945e+02,6.951594538792516e-310
	1.000000000000000e+00,0.000000000000000e+00
	5.982062976643332e-02,-2.371542156926177e-01
	-9.401793702335667e-03,-2.371542156926177e-03
29		7.943282347242831e+02,6.951594538792516e-310
	1.000000000000000e+00,0.000000000000000e+00
	3.859633238788676e-02,-1.926308789215543e-01
	-9.614036676121132e-03,-1.926308789215543e-03
30		1.000000000000002e+03,6.951594538792516e-310
	1.000000000000000e+00,0.000000000000000e+00
	2.470452303185754e-02,-1.552230961346473e-01
	-9.752954769681424e-03,-1.552230961346473e-03
31		1.258925411794170e+03,6.951594538792516e-310
	1.000000000000000e+00,0.000000000000000e+00
	1.573091939939283e-02,-1.244325422638413e-01
	-9.842690806006072e-03,-1.244325422638413e-03
32		1.584893192461117e+03,6.951594538792516e-310
	1.000000000000000e+00,0.000000000000000e+00
	9.983497127712904e-03,-9.941743766972598e-02
	-9.900165028722872e-03,-9.941743766972598e-04
33		1.995262314968884e+03,6.951594538792516e-310
	1.000000000000000e+00,0.000000000000000e+00
	6.322454886315669e-03,-7.926210601874122e-02
	-9.936775451136843e-03,-7.926210601874122e-04
34		2.511886431509586e+03,6.951594538792516e-310
	1.000000000000000e+00,0.000000000000000e+00
	3.998528935458667e-03,-6.310737438533603e-02
	-9.960014710645414e-03,-6.310737438533603e-04
35		3.162277660168386e+03,6.951594538792516e-310
	1.000000000000000e+00,0.000000000000000e+00
	2.526629563608172e-03,-5.020204882927063e-02
	-9.974733704363919e-03,-5.020204882927063e-04
36		3.981071705534981e+03,6.951594538792516e-310
	1.000000000000000e+00,0.000000000000000e+00
	1.595683349481160e-03,-3.991412211397551e-02
	-9.984043166505188e-03,-3.991412211397552e-04
37		5.011872336272734e+03,6.951594538792516e-310
	1.000000000000000e+00,0.000000000000000e+00
	1.007401362519541e-03,-3.172359539860409e-02
	-9.989925986374805e-03,-3.172359539860410e-04
38		6.309573444801948e+03,6.951594538792516e-310
	1.000000000000000e+00,0.000000000000000e+00
	6.358636861541672e-04,-2.520831933165711e-02
	-9.993641363138458e-03,-2.520831933165711e-04
39		7.943282347242834e+03,6.951594538792516e-310
	1.000000000000000e+00,0.000000000000000e+00
	4.012970315590286e-04,-2.002837967114391e-02
	-9.995987029684411e-03,-2.002837967114391e-04
40		1.000000000000003e+04,6.951594538792516e-310
	1.000000000000000e+00,0.000000000000000e+00
	2.532388129651587e-04,-1.591146388830288e-02
	-9.997467611870349e-03,-1.591146388830288e-04
41		1.258925411794171e+04,6.951594538792516e-310
	1.000000000000000e+00,0.000000000000000e+00
	1.597978230010173e-04,-1.264010631509013e-02
	-9.998402021769990e-03,-1.264010631509013e-04
42		1.584893192461118e+04,6.951594538792516e-310
	1.000000000000000e+00,0.000000000000000e+00
	1.008315563144485e-04,-1.004098547512642e-02
	-9.998991684436855e-03,-1.004098547512642e-04
43		1.995262314968885e+04,6.951594538792516e-310
	1.000000000000000e+00,0.000000000000000e+00
	6.362277848842438e-05,-7.976135068470305e-03
	-9.999363772215115e-03,-7.976135068470305e-05
44		2.511886431509587e+04,6.951594538792516e-310
	1.000000000000000e+00,0.000000000000000e+00
	4.014420193006479e-05,-6.335818050821550e-03
	-9.999598557980700e-03,-6.335818050821550e-05
45		3.162277660168388e+04,6.951594538792516e-310
	1.000000000000000e+00,0.000000000000000e+00
	2.532965430294549e-05,-5.032793728294294e-03
	-9.999746703456970e-03,-5.032793728294294e-05
46		3.981071705534984e+04,6.951594538792516e-310
	1.000000000000000e+00,0.000000000000000e+00
	1.598208081165038e-05,-3.997727527576549e-03
	-9.999840179191883e-03,-3.997727527576549e-05
47		5.011872336272738e+04,6.951594538792516e-310
	1.000000000000000e+00,0.000000000000000e+00
	1.008407074473731e-05,-3.175526579365148e-03
	-9.999899159292553e-03,-3.175526579365148e-05
48		6.309573444801952e+04,6.951594538792516e-310
	1.000000000000000e+00,0.000000000000000e+00
	6.362642176918874e-06,-2.522419809172019e-03
	-9.999936373578232e-03,-2.522419809172019e-05
49		7.943282347242841e+04,6.951594538792516e-310
	1.000000000000000e+00,0.000000000000000e+00
	4.014565238372307e-06,-2.003633978958795e-03
	-9.999959854347616e-03,-2.003633978958795e-05
50		1.000000000000003e+05,6.951594538792516e-310
	1.000000000000000e+00,0.000000000000000e+00
	2.533023174835772e-06,-1.591545399487356e-03
	-9.999974669768251e-03,-1.591545399487356e-05
