Title: * C:\sandbox\spicelib\examples\testfiles\AC_rawtest.asc
Date: Wed Feb 12 08:37:37 2025
Plotname: AC Analysis
Flags: complex
Abscissa:     1.000000000000000e+00     1.000000000000000e+05                  dec
No. Variables: 5
No. Points: 50                   
Command: QSPICE64, Build Feb 11 2025 08:06:48
.param temp=27
.alias I(R1) (0.01mho*V(in,out))
.alias Freq Frequency
.alias Omega 2*pi*Frequency
Variables:
	0	Frequency	frequency
	1	V(in)	voltage
	2	V(out)	voltage
	3	I(VIN)	current
	4	I(C1)	current
Values:
0		1.000000000000000e+00
	1.000000000000000e+00,0.000000000000000e+00
	9.999605231408785e-01,-6.282937266758373e-03
	-3.947685912157606e-07,-6.282937266758373e-05
	3.947685912142723e-07,6.282937266758373e-05
1		1.258925411794167e+00
	1.000000000000000e+00,0.000000000000000e+00
	9.999374348393328e-01,-7.909566755942080e-03
	-6.256516066720230e-07,-7.909566755942080e-05
	6.256516066703335e-07,7.909566755942080e-05
2		1.584893192461114e+00
	1.000000000000000e+00,0.000000000000000e+00
	9.999008445312630e-01,-9.957190212550896e-03
	-9.915546873694864e-07,-9.957190212550896e-05
	9.915546873689972e-07,9.957190212550899e-05
3		1.995262314968880e+00
	1.000000000000000e+00,0.000000000000000e+00
	9.998428582860943e-01,-1.253463283812139e-02
	-1.571417139056494e-06,-1.253463283812139e-04
	1.571417139057601e-06,1.253463283812139e-04
4		2.511886431509581e+00
	1.000000000000000e+00,0.000000000000000e+00
	9.997509700560006e-01,-1.577871756783712e-02
	-2.490299439994459e-06,-1.577871756783712e-04
	2.490299439995800e-06,1.577871756783712e-04
5		3.162277660168380e+00
	1.000000000000000e+00,0.000000000000000e+00
	9.996053716169964e-01,-1.986133559058591e-02
	-3.946283830037062e-06,-1.986133559058591e-04
	3.946283830035461e-06,1.986133559058591e-04
6		3.981071705534974e+00
	1.000000000000000e+00,0.000000000000000e+00
	9.993747004910168e-01,-2.499817012315512e-02
	-6.252995089831709e-06,-2.499817012315512e-04
	6.252995089831393e-06,2.499817012315512e-04
7		5.011872336272725e+00
	1.000000000000000e+00,0.000000000000000e+00
	9.990093293863216e-01,-3.145932588935488e-02
	-9.906706136784960e-06,-3.145932588935488e-04
	9.906706136784392e-06,3.145932588935488e-04
8		6.309573444801935e+00
	1.000000000000000e+00,0.000000000000000e+00
	9.984308021389235e-01,-3.958200953903541e-02
	-1.569197861076531e-05,-3.958200953903542e-04
	1.569197861076496e-05,3.958200953903542e-04
9		7.943282347242818e+00
	1.000000000000000e+00,0.000000000000000e+00
	9.975152695106647e-01,-4.978510423540031e-02
	-2.484730489335334e-05,-4.978510423540031e-04
	2.484730489335305e-05,4.978510423540032e-04
10		1.000000000000001e+01
	1.000000000000000e+00,0.000000000000000e+00
	9.960676824071715e-01,-6.258477827057159e-02
	-3.932317592828492e-05,-6.258477827057159e-04
	3.932317592828475e-05,6.258477827057159e-04
11		1.258925411794168e+01
	1.000000000000000e+00,0.000000000000000e+00
	9.937819979329321e-01,-7.860876870528413e-02
	-6.218002067067893e-05,-7.860876870528414e-04
	6.218002067067913e-05,7.860876870528415e-04
12		1.584893192461115e+01
	1.000000000000000e+00,0.000000000000000e+00
	9.901808418263082e-01,-9.860396699144966e-02
	-9.819158173691826e-05,-9.860396699144967e-04
	9.819158173691864e-05,9.860396699144965e-04
13		1.995262314968881e+01
	1.000000000000000e+00,0.000000000000000e+00
	9.845265495375659e-01,-1.234261835803879e-01
	-1.547345046243407e-04,-1.234261835803879e-03
	1.547345046243400e-04,1.234261835803879e-03
14		2.511886431509582e+01
	1.000000000000000e+00,0.000000000000000e+00
	9.756961908471375e-01,-1.539906945679597e-01
	-2.430380915286242e-04,-1.539906945679597e-03
	2.430380915286238e-04,1.539906945679597e-03
15		3.162277660168382e+01
	1.000000000000000e+00,0.000000000000000e+00
	9.620209357541615e-01,-1.911456379958695e-01
	-3.797906424583847e-04,-1.911456379958695e-03
	3.797906424583849e-04,1.911456379958695e-03
16		3.981071705534977e+01
	1.000000000000000e+00,0.000000000000000e+00
	9.411152867478161e-01,-2.354088014441917e-01
	-5.888471325218390e-04,-2.354088014441918e-03
	5.888471325218375e-04,2.354088014441918e-03
17		5.011872336272729e+01
	1.000000000000000e+00,0.000000000000000e+00
	9.097812664019539e-01,-2.864948755318497e-01
	-9.021873359804609e-04,-2.864948755318497e-03
	9.021873359804616e-04,2.864948755318497e-03
18		6.309573444801940e+01
	1.000000000000000e+00,0.000000000000000e+00
	8.641799400944479e-01,-3.425973894132929e-01
	-1.358200599055521e-03,-3.425973894132929e-03
	1.358200599055521e-03,3.425973894132929e-03
19		7.943282347242825e+01
	1.000000000000000e+00,0.000000000000000e+00
	8.005815582254351e-01,-3.995631700429466e-01
	-1.994184417745648e-03,-3.995631700429466e-03
	1.994184417745649e-03,3.995631700429465e-03
20		1.000000000000001e+02
	1.000000000000000e+00,0.000000000000000e+00
	7.169568003248967e-01,-4.504772433683881e-01
	-2.830431996751033e-03,-4.504772433683881e-03
	2.830431996751030e-03,4.504772433683882e-03
21		1.258925411794169e+02
	1.000000000000000e+00,0.000000000000000e+00
	6.151231395586004e-01,-4.865661956385487e-01
	-3.848768604413996e-03,-4.865661956385487e-03
	3.848768604413997e-03,4.865661956385487e-03
22		1.584893192461116e+02
	1.000000000000000e+00,0.000000000000000e+00
	5.020954917241710e-01,-4.999956088951517e-01
	-4.979045082758290e-03,-4.999956088951517e-03
	4.979045082758291e-03,4.999956088951517e-03
23		1.995262314968883e+02
	1.000000000000000e+00,0.000000000000000e+00
	3.888532701177216e-01,-4.874899018815420e-01
	-6.111467298822785e-03,-4.874899018815420e-03
	6.111467298822783e-03,4.874899018815420e-03
24		2.511886431509584e+02
	1.000000000000000e+00,0.000000000000000e+00
	2.864574583735093e-01,-4.521057209499766e-01
	-7.135425416264907e-03,-4.521057209499767e-03
	7.135425416264907e-03,4.521057209499768e-03
25		3.162277660168385e+02
	1.000000000000000e+00,0.000000000000000e+00
	2.021083228643777e-01,-4.015725945496355e-01
	-7.978916771356223e-03,-4.015725945496355e-03
	7.978916771356223e-03,4.015725945496355e-03
26		3.981071705534980e+02
	1.000000000000000e+00,0.000000000000000e+00
	1.377997439989837e-01,-3.446896786281802e-01
	-8.622002560010163e-03,-3.446896786281802e-03
	8.622002560010163e-03,3.446896786281802e-03
27		5.011872336272732e+02
	1.000000000000000e+00,0.000000000000000e+00
	9.160419896210742e-02,-2.884664099936385e-01
	-9.083958010378927e-03,-2.884664099936385e-03
	9.083958010378927e-03,2.884664099936385e-03
28		6.309573444801945e+02
	1.000000000000000e+00,0.000000000000000e+00
	5.982062976643338e-02,-2.371542156926177e-01
	-9.401793702335667e-03,-2.371542156926177e-03
	9.401793702335667e-03,2.371542156926177e-03
29		7.943282347242831e+02
	1.000000000000000e+00,0.000000000000000e+00
	3.859633238788679e-02,-1.926308789215543e-01
	-9.614036676121132e-03,-1.926308789215543e-03
	9.614036676121131e-03,1.926308789215543e-03
30		1.000000000000002e+03
	1.000000000000000e+00,0.000000000000000e+00
	2.470452303185757e-02,-1.552230961346473e-01
	-9.752954769681424e-03,-1.552230961346473e-03
	9.752954769681426e-03,1.552230961346473e-03
31		1.258925411794170e+03
	1.000000000000000e+00,0.000000000000000e+00
	1.573091939939285e-02,-1.244325422638413e-01
	-9.842690806006072e-03,-1.244325422638413e-03
	9.842690806006072e-03,1.244325422638412e-03
32		1.584893192461117e+03
	1.000000000000000e+00,0.000000000000000e+00
	9.983497127712912e-03,-9.941743766972598e-02
	-9.900165028722870e-03,-9.941743766972598e-04
	9.900165028722870e-03,9.941743766972598e-04
33		1.995262314968884e+03
	1.000000000000000e+00,0.000000000000000e+00
	6.322454886315676e-03,-7.926210601874122e-02
	-9.936775451136843e-03,-7.926210601874122e-04
	9.936775451136843e-03,7.926210601874122e-04
34		2.511886431509586e+03
	1.000000000000000e+00,0.000000000000000e+00
	3.998528935458670e-03,-6.310737438533602e-02
	-9.960014710645414e-03,-6.310737438533602e-04
	9.960014710645412e-03,6.310737438533603e-04
35		3.162277660168386e+03
	1.000000000000000e+00,0.000000000000000e+00
	2.526629563608174e-03,-5.020204882927063e-02
	-9.974733704363919e-03,-5.020204882927063e-04
	9.974733704363919e-03,5.020204882927063e-04
36		3.981071705534981e+03
	1.000000000000000e+00,0.000000000000000e+00
	1.595683349481162e-03,-3.991412211397551e-02
	-9.984043166505188e-03,-3.991412211397552e-04
	9.984043166505190e-03,3.991412211397552e-04
37		5.011872336272734e+03
	1.000000000000000e+00,0.000000000000000e+00
	1.007401362519542e-03,-3.172359539860409e-02
	-9.989925986374805e-03,-3.172359539860410e-04
	9.989925986374805e-03,3.172359539860410e-04
38		6.309573444801948e+03
	1.000000000000000e+00,0.000000000000000e+00
	6.358636861541680e-04,-2.520831933165711e-02
	-9.993641363138458e-03,-2.520831933165711e-04
	9.993641363138458e-03,2.520831933165711e-04
39		7.943282347242834e+03
	1.000000000000000e+00,0.000000000000000e+00
	4.012970315590290e-04,-2.002837967114391e-02
	-9.995987029684411e-03,-2.002837967114391e-04
	9.995987029684409e-03,2.002837967114391e-04
40		1.000000000000003e+04
	1.000000000000000e+00,0.000000000000000e+00
	2.532388129651589e-04,-1.591146388830288e-02
	-9.997467611870349e-03,-1.591146388830288e-04
	9.997467611870349e-03,1.591146388830288e-04
41		1.258925411794171e+04
	1.000000000000000e+00,0.000000000000000e+00
	1.597978230010175e-04,-1.264010631509013e-02
	-9.998402021769990e-03,-1.264010631509013e-04
	9.998402021769990e-03,1.264010631509013e-04
42		1.584893192461118e+04
	1.000000000000000e+00,0.000000000000000e+00
	1.008315563144486e-04,-1.004098547512642e-02
	-9.998991684436855e-03,-1.004098547512642e-04
	9.998991684436857e-03,1.004098547512642e-04
43		1.995262314968885e+04
	1.000000000000000e+00,0.000000000000000e+00
	6.362277848842446e-05,-7.976135068470305e-03
	-9.999363772215115e-03,-7.976135068470305e-05
	9.999363772215114e-03,7.976135068470306e-05
44		2.511886431509587e+04
	1.000000000000000e+00,0.000000000000000e+00
	4.014420193006483e-05,-6.335818050821550e-03
	-9.999598557980700e-03,-6.335818050821550e-05
	9.999598557980700e-03,6.335818050821550e-05
45		3.162277660168388e+04
	1.000000000000000e+00,0.000000000000000e+00
	2.532965430294552e-05,-5.032793728294294e-03
	-9.999746703456970e-03,-5.032793728294294e-05
	9.999746703456968e-03,5.032793728294296e-05
46		3.981071705534984e+04
	1.000000000000000e+00,0.000000000000000e+00
	1.598208081165039e-05,-3.997727527576549e-03
	-9.999840179191883e-03,-3.997727527576549e-05
	9.999840179191883e-03,3.997727527576548e-05
47		5.011872336272738e+04
	1.000000000000000e+00,0.000000000000000e+00
	1.008407074473732e-05,-3.175526579365148e-03
	-9.999899159292553e-03,-3.175526579365148e-05
	9.999899159292553e-03,3.175526579365148e-05
48		6.309573444801952e+04
	1.000000000000000e+00,0.000000000000000e+00
	6.362642176918880e-06,-2.522419809172019e-03
	-9.999936373578232e-03,-2.522419809172019e-05
	9.999936373578232e-03,2.522419809172019e-05
49		1.000000000000000e+05
	1.000000000000000e+00,0.000000000000000e+00
	2.533023174835792e-06,-1.591545399487361e-03
	-9.999974669768251e-03,-1.591545399487362e-05
	9.999974669768253e-03,1.591545399487362e-05
