Title: * C:\sandbox\spicelib\examples\testfiles\AC_rawtest.asc
Date: Tue Feb 11 09:04:31 2025
Plotname: AC Analysis
Flags: complex
No. Variables: 4
No. Points: 51                
Variables:
	0	frequency	frequency
	1	IN	voltage
	2	OUT	voltage
	3	VIN#branch	current
Values:
0	1.00000000e+00, 0.00000000e+00
	1.00000000e+00, 0.00000000e+00
	9.99960523e-01, -6.28293727e-03
	-3.94768591e-07, -6.28293727e-05

1	1.25892541e+00, 0.00000000e+00
	1.00000000e+00, 0.00000000e+00
	9.99937435e-01, -7.90956676e-03
	-6.25651607e-07, -7.90956676e-05

2	1.58489319e+00, 0.00000000e+00
	1.00000000e+00, 0.00000000e+00
	9.99900845e-01, -9.95719021e-03
	-9.91554687e-07, -9.95719021e-05

3	1.99526231e+00, 0.00000000e+00
	1.00000000e+00, 0.00000000e+00
	9.99842858e-01, -1.25346328e-02
	-1.57141714e-06, -1.25346328e-04

4	2.51188643e+00, 0.00000000e+00
	1.00000000e+00, 0.00000000e+00
	9.99750970e-01, -1.57787176e-02
	-2.49029944e-06, -1.57787176e-04

5	3.16227766e+00, 0.00000000e+00
	1.00000000e+00, 0.00000000e+00
	9.99605372e-01, -1.98613356e-02
	-3.94628383e-06, -1.98613356e-04

6	3.98107171e+00, 0.00000000e+00
	1.00000000e+00, 0.00000000e+00
	9.99374700e-01, -2.49981701e-02
	-6.25299509e-06, -2.49981701e-04

7	5.01187234e+00, 0.00000000e+00
	1.00000000e+00, 0.00000000e+00
	9.99009329e-01, -3.14593259e-02
	-9.90670614e-06, -3.14593259e-04

8	6.30957344e+00, 0.00000000e+00
	1.00000000e+00, 0.00000000e+00
	9.98430802e-01, -3.95820095e-02
	-1.56919786e-05, -3.95820095e-04

9	7.94328235e+00, 0.00000000e+00
	1.00000000e+00, 0.00000000e+00
	9.97515270e-01, -4.97851042e-02
	-2.48473049e-05, -4.97851042e-04

10	1.00000000e+01, 0.00000000e+00
	1.00000000e+00, 0.00000000e+00
	9.96067682e-01, -6.25847783e-02
	-3.93231759e-05, -6.25847783e-04

11	1.25892541e+01, 0.00000000e+00
	1.00000000e+00, 0.00000000e+00
	9.93781998e-01, -7.86087687e-02
	-6.21800207e-05, -7.86087687e-04

12	1.58489319e+01, 0.00000000e+00
	1.00000000e+00, 0.00000000e+00
	9.90180842e-01, -9.86039670e-02
	-9.81915817e-05, -9.86039670e-04

13	1.99526231e+01, 0.00000000e+00
	1.00000000e+00, 0.00000000e+00
	9.84526550e-01, -1.23426184e-01
	-1.54734505e-04, -1.23426184e-03

14	2.51188643e+01, 0.00000000e+00
	1.00000000e+00, 0.00000000e+00
	9.75696191e-01, -1.53990695e-01
	-2.43038092e-04, -1.53990695e-03

15	3.16227766e+01, 0.00000000e+00
	1.00000000e+00, 0.00000000e+00
	9.62020936e-01, -1.91145638e-01
	-3.79790642e-04, -1.91145638e-03

16	3.98107171e+01, 0.00000000e+00
	1.00000000e+00, 0.00000000e+00
	9.41115287e-01, -2.35408801e-01
	-5.88847133e-04, -2.35408801e-03

17	5.01187234e+01, 0.00000000e+00
	1.00000000e+00, 0.00000000e+00
	9.09781266e-01, -2.86494876e-01
	-9.02187336e-04, -2.86494876e-03

18	6.30957344e+01, 0.00000000e+00
	1.00000000e+00, 0.00000000e+00
	8.64179940e-01, -3.42597389e-01
	-1.35820060e-03, -3.42597389e-03

19	7.94328235e+01, 0.00000000e+00
	1.00000000e+00, 0.00000000e+00
	8.00581558e-01, -3.99563170e-01
	-1.99418442e-03, -3.99563170e-03

20	1.00000000e+02, 0.00000000e+00
	1.00000000e+00, 0.00000000e+00
	7.16956800e-01, -4.50477243e-01
	-2.83043200e-03, -4.50477243e-03

21	1.25892541e+02, 0.00000000e+00
	1.00000000e+00, 0.00000000e+00
	6.15123140e-01, -4.86566196e-01
	-3.84876860e-03, -4.86566196e-03

22	1.58489319e+02, 0.00000000e+00
	1.00000000e+00, 0.00000000e+00
	5.02095492e-01, -4.99995609e-01
	-4.97904508e-03, -4.99995609e-03

23	1.99526231e+02, 0.00000000e+00
	1.00000000e+00, 0.00000000e+00
	3.88853270e-01, -4.87489902e-01
	-6.11146730e-03, -4.87489902e-03

24	2.51188643e+02, 0.00000000e+00
	1.00000000e+00, 0.00000000e+00
	2.86457458e-01, -4.52105721e-01
	-7.13542542e-03, -4.52105721e-03

25	3.16227766e+02, 0.00000000e+00
	1.00000000e+00, 0.00000000e+00
	2.02108323e-01, -4.01572595e-01
	-7.97891677e-03, -4.01572595e-03

26	3.98107171e+02, 0.00000000e+00
	1.00000000e+00, 0.00000000e+00
	1.37799744e-01, -3.44689679e-01
	-8.62200256e-03, -3.44689679e-03

27	5.01187234e+02, 0.00000000e+00
	1.00000000e+00, 0.00000000e+00
	9.16041990e-02, -2.88466410e-01
	-9.08395801e-03, -2.88466410e-03

28	6.30957344e+02, 0.00000000e+00
	1.00000000e+00, 0.00000000e+00
	5.98206298e-02, -2.37154216e-01
	-9.40179370e-03, -2.37154216e-03

29	7.94328235e+02, 0.00000000e+00
	1.00000000e+00, 0.00000000e+00
	3.85963324e-02, -1.92630879e-01
	-9.61403668e-03, -1.92630879e-03

30	1.00000000e+03, 0.00000000e+00
	1.00000000e+00, 0.00000000e+00
	2.47045230e-02, -1.55223096e-01
	-9.75295477e-03, -1.55223096e-03

31	1.25892541e+03, 0.00000000e+00
	1.00000000e+00, 0.00000000e+00
	1.57309194e-02, -1.24432542e-01
	-9.84269081e-03, -1.24432542e-03

32	1.58489319e+03, 0.00000000e+00
	1.00000000e+00, 0.00000000e+00
	9.98349713e-03, -9.94174377e-02
	-9.90016503e-03, -9.94174377e-04

33	1.99526231e+03, 0.00000000e+00
	1.00000000e+00, 0.00000000e+00
	6.32245489e-03, -7.92621060e-02
	-9.93677545e-03, -7.92621060e-04

34	2.51188643e+03, 0.00000000e+00
	1.00000000e+00, 0.00000000e+00
	3.99852894e-03, -6.31073744e-02
	-9.96001471e-03, -6.31073744e-04

35	3.16227766e+03, 0.00000000e+00
	1.00000000e+00, 0.00000000e+00
	2.52662956e-03, -5.02020488e-02
	-9.97473370e-03, -5.02020488e-04

36	3.98107171e+03, 0.00000000e+00
	1.00000000e+00, 0.00000000e+00
	1.59568335e-03, -3.99141221e-02
	-9.98404317e-03, -3.99141221e-04

37	5.01187234e+03, 0.00000000e+00
	1.00000000e+00, 0.00000000e+00
	1.00740136e-03, -3.17235954e-02
	-9.98992599e-03, -3.17235954e-04

38	6.30957344e+03, 0.00000000e+00
	1.00000000e+00, 0.00000000e+00
	6.35863686e-04, -2.52083193e-02
	-9.99364136e-03, -2.52083193e-04

39	7.94328235e+03, 0.00000000e+00
	1.00000000e+00, 0.00000000e+00
	4.01297032e-04, -2.00283797e-02
	-9.99598703e-03, -2.00283797e-04

40	1.00000000e+04, 0.00000000e+00
	1.00000000e+00, 0.00000000e+00
	2.53238813e-04, -1.59114639e-02
	-9.99746761e-03, -1.59114639e-04

41	1.25892541e+04, 0.00000000e+00
	1.00000000e+00, 0.00000000e+00
	1.59797823e-04, -1.26401063e-02
	-9.99840202e-03, -1.26401063e-04

42	1.58489319e+04, 0.00000000e+00
	1.00000000e+00, 0.00000000e+00
	1.00831556e-04, -1.00409855e-02
	-9.99899168e-03, -1.00409855e-04

43	1.99526231e+04, 0.00000000e+00
	1.00000000e+00, 0.00000000e+00
	6.36227785e-05, -7.97613507e-03
	-9.99936377e-03, -7.97613507e-05

44	2.51188643e+04, 0.00000000e+00
	1.00000000e+00, 0.00000000e+00
	4.01442019e-05, -6.33581805e-03
	-9.99959856e-03, -6.33581805e-05

45	3.16227766e+04, 0.00000000e+00
	1.00000000e+00, 0.00000000e+00
	2.53296543e-05, -5.03279373e-03
	-9.99974670e-03, -5.03279373e-05

46	3.98107171e+04, 0.00000000e+00
	1.00000000e+00, 0.00000000e+00
	1.59820808e-05, -3.99772753e-03
	-9.99984018e-03, -3.99772753e-05

47	5.01187234e+04, 0.00000000e+00
	1.00000000e+00, 0.00000000e+00
	1.00840707e-05, -3.17552658e-03
	-9.99989916e-03, -3.17552658e-05

48	6.30957344e+04, 0.00000000e+00
	1.00000000e+00, 0.00000000e+00
	6.36264218e-06, -2.52241981e-03
	-9.99993637e-03, -2.52241981e-05

49	7.94328235e+04, 0.00000000e+00
	1.00000000e+00, 0.00000000e+00
	4.01456524e-06, -2.00363398e-03
	-9.99995985e-03, -2.00363398e-05

50	1.00000000e+05, 0.00000000e+00
	1.00000000e+00, 0.00000000e+00
	2.53302317e-06, -1.59154540e-03
	-9.99997467e-03, -1.59154540e-05

