Title: * dc directive
Date: Tue Jul 29 07:23:10  2025
Command: ngspice-44.2, Build 
Plotname: DC transfer characteristic
Flags: real
No. Variables: 4
No. Points: 6
Variables:
	0	v(v-sweep)	voltage
	1	i(@r1[i])	current
	2	v(r)	voltage
	3	i(v1)	current
Values:
 0	0.000000000000000e+00
	0.000000000000000e+00
	0.000000000000000e+00
	0.000000000000000e+00

 1	1.000000000000000e+00
	1.000000000000000e-03
	1.000000000000000e+00
	-1.000000000000000e-03

 2	2.000000000000000e+00
	2.000000000000000e-03
	2.000000000000000e+00
	-2.000000000000000e-03

 3	3.000000000000000e+00
	3.000000000000000e-03
	3.000000000000000e+00
	-3.000000000000000e-03

 4	4.000000000000000e+00
	4.000000000000000e-03
	4.000000000000000e+00
	-4.000000000000000e-03

 5	5.000000000000000e+00
	5.000000000000000e-03
	5.000000000000000e+00
	-5.000000000000000e-03

