Title: Z:\Users\memee\Documents\workspace\spicelib\examples\testfiles\dc_rawtest.net
Date: Mon Jul 28 22:28:58 2025
Plotname: DC transfer characteristic
Flags: real forward linear
No. Variables: 4
No. Points:            6
Offset:    0.0000000000000000e+00
Command: Linear Technology Corporation LTspice
Variables:
	0	V1	voltage
	1	V(r)	voltage
	2	I(V1)	device_current
	3	I(R1)	device_current
Values:
0		0.000000000000000e+00
	0.000000000000000e+00
	0.000000000000000e+00
	0.000000000000000e+00
1		1.000000000000000e+00
	1.000000000000000e+00
	-1.000000000000000e-03
	1.000000000000000e-03
2		2.000000000000000e+00
	2.000000000000000e+00
	-2.000000000000000e-03
	2.000000000000000e-03
3		3.000000000000000e+00
	3.000000000000000e+00
	-3.000000000000000e-03
	3.000000000000000e-03
4		4.000000000000000e+00
	4.000000000000000e+00
	-4.000000000000000e-03
	4.000000000000000e-03
5		5.000000000000000e+00
	5.000000000000000e+00
	-5.000000000000000e-03
	5.000000000000000e-03
