Title: * DC directive
Date: Tue Jul 29 08:45:24 2025
Plotname: DC Transfer Characteristic
Flags: real
Abscissa:     0.000000000000000e+00     5.000000000000000e+00                  lin
No. Variables: 5
No. Points: 6                    
Command: QSPICE64, Build Mar 15 2025 08:08:41
.param temp=27
.alias I(R1) (0.001mho*V(r,0))
Variables:
	0	V1	voltage
	1	V(r)	voltage
	2	I(V1)	current
	3	P(R1)	power
	4	P(V1)	power
Values:
0		0.000000000000000e+00
	0.000000000000000e+00
	0.000000000000000e+00
	0.000000000000000e+00
	0.000000000000000e+00
1		1.000000000000000e+00
	1.000000000000000e+00
	-1.000000000000000e-03
	1.000000000000000e-03
	-1.000000000000000e-03
2		2.000000000000000e+00
	2.000000000000000e+00
	-2.000000000000000e-03
	4.000000000000000e-03
	-4.000000000000000e-03
3		3.000000000000000e+00
	3.000000000000000e+00
	-3.000000000000000e-03
	9.000000000000001e-03
	-9.000000000000001e-03
4		4.000000000000000e+00
	4.000000000000000e+00
	-4.000000000000000e-03
	1.600000000000000e-02
	-1.600000000000000e-02
5		5.000000000000000e+00
	5.000000000000000e+00
	-5.000000000000000e-03
	2.500000000000000e-02
	-2.500000000000000e-02
