Title: ** sch_path: /home/simon/code/lownoisecsa/ihp/schematics/csa_pytb_i.sch
Date: Tue Jul 22 18:43:27  2025
Command: ngspice-44.2, Build Thu Mar  6 15:34:06 UTC 2025
Plotname: Noise Spectral Density Curves
Flags: real
No. Variables: 3
No. Points: 401
Variables:
	0	frequency	frequency grid=3
	1	inoise_spectrum	current-density
	2	onoise_spectrum	voltage-density
Values:
 0	1.000000000000000e+03
	3.007634291255417e-15
	1.296513248170394e-06

 1	1.023292992280754e+03
	2.981236055294175e-15
	1.284373952034274e-06

 2	1.047128548050900e+03
	2.955278123970012e-15
	1.272403558351965e-06

 3	1.071519305237606e+03
	2.929755540877767e-15
	1.260599019890272e-06

 4	1.096478196143185e+03
	2.904663451257022e-15
	1.248957302263453e-06

 5	1.122018454301963e+03
	2.879997104152400e-15
	1.237475383837466e-06

 6	1.148153621496883e+03
	2.855751854146377e-15
	1.226150255644411e-06

 7	1.174897554939529e+03
	2.831923162721968e-15
	1.214978921013045e-06

 8	1.202264434617413e+03
	2.808506599209034e-15
	1.203958395187370e-06

 9	1.230268770812381e+03
	2.785497841401147e-15
	1.193085704516474e-06

 10	1.258925411794167e+03
	2.762892675747639e-15
	1.182357885803508e-06

 11	1.288249551693134e+03
	2.740686997228932e-15
	1.171771985321261e-06

 12	1.318256738556407e+03
	2.718876808890224e-15
	1.161325057735052e-06

 13	1.348962882591653e+03
	2.697458221042858e-15
	1.151014165010895e-06

 14	1.380384264602884e+03
	2.676427450191689e-15
	1.140836375116727e-06

 15	1.412537544622754e+03
	2.655780817678727e-15
	1.130788760719067e-06

 16	1.445439770745927e+03
	2.635514748092179e-15
	1.120868397746777e-06

 17	1.479108388168207e+03
	2.615625767428098e-15
	1.111072364062797e-06

 18	1.513561248436208e+03
	2.596110501090560e-15
	1.101397737896853e-06

 19	1.548816618912481e+03
	2.576965671675491e-15
	1.091841596538610e-06

 20	1.584893192461113e+03
	2.558188096647333e-15
	1.082401014795043e-06

 21	1.621810097358929e+03
	2.539774685860640e-15
	1.073073063669774e-06

 22	1.659586907437560e+03
	2.521722438992451e-15
	1.063854809020336e-06

 23	1.698243652461744e+03
	2.504028442890412e-15
	1.054743310318205e-06

 24	1.737800828749375e+03
	2.486689868853271e-15
	1.045735619558897e-06

 25	1.778279410038922e+03
	2.469703969893597e-15
	1.036828780143124e-06

 26	1.819700858609983e+03
	2.453068077941064e-15
	1.028019826141238e-06

 27	1.862087136662866e+03
	2.436779601069300e-15
	1.019305781524600e-06

 28	1.905460717963246e+03
	2.420836020723624e-15
	1.010683659631446e-06

 29	1.949844599758044e+03
	2.405234888956923e-15
	1.002150462936548e-06

 30	1.995262314968878e+03
	2.389973825722824e-15
	9.937031828905423e-07

 31	2.041737944669528e+03
	2.375050516192178e-15
	9.853388001592327e-07

 32	2.089296130854038e+03
	2.360462708139374e-15
	9.770542850265119e-07

 33	2.137962089502230e+03
	2.346208209391763e-15
	9.688465980815131e-07

 34	2.187761623949551e+03
	2.332284885337677e-15
	9.607126912970929e-07

 35	2.238721138568338e+03
	2.318690656524074e-15
	9.526495093336750e-07

 36	2.290867652767771e+03
	2.305423496338323e-15
	9.446539911606777e-07

 37	2.344228815319920e+03
	2.292481428753393e-15
	9.367230721979304e-07

 38	2.398832919019488e+03
	2.279862526198673e-15
	9.288536865470499e-07

 39	2.454708915685028e+03
	2.267564907495653e-15
	9.210427698001328e-07

 40	2.511886431509578e+03
	2.255586735894006e-15
	9.132872621844343e-07

 41	2.570395782768861e+03
	2.243926217213515e-15
	9.055841120117219e-07

 42	2.630267991895379e+03
	2.232581598068625e-15
	8.979302796264520e-07

 43	2.691534803926913e+03
	2.221551164198420e-15
	8.903227416752770e-07

 44	2.754228703338164e+03
	2.210833238890856e-15
	8.827584957868661e-07

 45	2.818382931264451e+03
	2.200426181502483e-15
	8.752345656372842e-07

 46	2.884031503126603e+03
	2.190328386069101e-15
	8.677480064311560e-07

 47	2.951209226666382e+03
	2.180538280022721e-15
	8.602959106438533e-07

 48	3.019951720402013e+03
	2.171054322979601e-15
	8.528754142955443e-07

 49	3.090295432513587e+03
	2.161875005649113e-15
	8.454837033030310e-07

 50	3.162277660168375e+03
	2.152998848800230e-15
	8.381180204087482e-07

 51	3.235936569296278e+03
	2.144424402333932e-15
	8.307756722287708e-07

 52	3.311311214825906e+03
	2.136150244445278e-15
	8.234540365100988e-07

 53	3.388441561392021e+03
	2.128174980850718e-15
	8.161505697540533e-07

 54	3.467368504525311e+03
	2.120497244114030e-15
	8.088628148524589e-07

 55	3.548133892335749e+03
	2.113115693044684e-15
	8.015884089016915e-07

 56	3.630780547701007e+03
	2.106029012175183e-15
	7.943250910659518e-07

 57	3.715352290971719e+03
	2.099235911311952e-15
	7.870707104643944e-07

 58	3.801893963205605e+03
	2.092735125163901e-15
	7.798232339634905e-07

 59	3.890451449942799e+03
	2.086525413039319e-15
	7.725807538785690e-07

 60	3.981071705534966e+03
	2.080605558613986e-15
	7.653414954733325e-07

 61	4.073802778041120e+03
	2.074974369767964e-15
	7.581038241885243e-07

 62	4.168693834703347e+03
	2.069630678480825e-15
	7.508662526112484e-07

 63	4.265795188015919e+03
	2.064573340804004e-15
	7.436274469174161e-07

 64	4.365158322401651e+03
	2.059801236884092e-15
	7.363862329426416e-07

 65	4.466835921509622e+03
	2.055313271048797e-15
	7.291416016812083e-07

 66	4.570881896148741e+03
	2.051108371953094e-15
	7.218927141571199e-07

 67	4.677351412871973e+03
	2.047185492782631e-15
	7.146389056007316e-07

 68	4.786300923226374e+03
	2.043543611508061e-15
	7.073796889228985e-07

 69	4.897788193684452e+03
	2.040181731194821e-15
	7.001147573630068e-07

 70	5.011872336272713e+03
	2.037098880364618e-15
	6.928439862832783e-07

 71	5.128613839913639e+03
	2.034294113408492e-15
	6.855674340486425e-07

 72	5.248074602497716e+03
	2.031766511039836e-15
	6.782853420541876e-07

 73	5.370317963702517e+03
	2.029515180803908e-15
	6.709981336959968e-07

 74	5.495408738576235e+03
	2.027539257627180e-15
	6.637064124168482e-07

 75	5.623413251903480e+03
	2.025837904411259e-15
	6.564109587577224e-07

 76	5.754399373371558e+03
	2.024410312665248e-15
	6.491127264586492e-07

 77	5.888436553555878e+03
	2.023255703186263e-15
	6.418128375210123e-07

 78	6.025595860743566e+03
	2.022373326769292e-15
	6.345125764185945e-07

 79	6.165950018614810e+03
	2.021762464962932e-15
	6.272133833218897e-07

 80	6.309573444801920e+03
	2.021422430855599e-15
	6.199168465128125e-07

 81	6.456542290346542e+03
	2.021352569900833e-15
	6.126246939546493e-07

 82	6.606934480075946e+03
	2.021552260771892e-15
	6.053387841569067e-07

 83	6.760829753919804e+03
	2.022020916252448e-15
	5.980610963286289e-07

 84	6.918309709189351e+03
	2.022757984156795e-15
	5.907937199637681e-07

 85	7.079457843841365e+03
	2.023762948279482e-15
	5.835388439115586e-07

 86	7.244359600749885e+03
	2.025035329375213e-15
	5.762987450261779e-07

 87	7.413102413009159e+03
	2.026574686165526e-15
	5.690757764975038e-07

 88	7.585775750291821e+03
	2.028380616374174e-15
	5.618723559346285e-07

 89	7.762471166286900e+03
	2.030452757785342e-15
	5.546909533458392e-07

 90	7.943282347242797e+03
	2.032790789330365e-15
	5.475340790516820e-07

 91	8.128305161640974e+03
	2.035394432196235e-15
	5.404042716781256e-07

 92	8.317637711026691e+03
	2.038263450962115e-15
	5.333040862561007e-07

 93	8.511380382023744e+03
	2.041397654750970e-15
	5.262360826238936e-07

 94	8.709635899560786e+03
	2.044796898413618e-15
	5.192028140656780e-07

 95	8.912509381337435e+03
	2.048461083726618e-15
	5.122068163995909e-07

 96	9.120108393559076e+03
	2.052390160617639e-15
	5.052505974882768e-07

 97	9.332543007969889e+03
	2.056584128407980e-15
	4.983366272964050e-07

 98	9.549925860214338e+03
	2.061043037079903e-15
	4.914673284964066e-07

 99	9.772372209558085e+03
	2.065766988562637e-15
	4.846450677117991e-07

 100	9.999999999999978e+03
	2.070756138040044e-15
	4.778721474087118e-07

 101	1.023292992280752e+04
	2.076010695281107e-15
	4.711507984654752e-07

 102	1.047128548050897e+04
	2.081530925988553e-15
	4.644831734619037e-07

 103	1.071519305237604e+04
	2.087317153172808e-15
	4.578713406654859e-07

 104	1.096478196143183e+04
	2.093369758544287e-15
	4.513172787592131e-07

 105	1.122018454301961e+04
	2.099689183931625e-15
	4.448228722720892e-07

 106	1.148153621496880e+04
	2.106275932719358e-15
	4.383899077339809e-07

 107	1.174897554939527e+04
	2.113130571311843e-15
	4.320200705185064e-07

 108	1.202264434617410e+04
	2.120253730621329e-15
	4.257149423566693e-07

 109	1.230268770812379e+04
	2.127646107578286e-15
	4.194759995224788e-07

 110	1.258925411794164e+04
	2.135308466672037e-15
	4.133046116153796e-07

 111	1.288249551693131e+04
	2.143241641515043e-15
	4.072020409462505e-07

 112	1.318256738556404e+04
	2.151446536437068e-15
	4.011694424771544e-07

 113	1.348962882591650e+04
	2.159924128109058e-15
	3.952078642722730e-07

 114	1.380384264602881e+04
	2.168675467195294e-15
	3.893182484348637e-07

 115	1.412537544622750e+04
	2.177701680041674e-15
	3.835014324722695e-07

 116	1.445439770745923e+04
	2.187003970392874e-15
	3.777581510701927e-07

 117	1.479108388168203e+04
	2.196583621148378e-15
	3.720890382188452e-07

 118	1.513561248436204e+04
	2.206441996152423e-15
	3.664946296579096e-07

 119	1.548816618912477e+04
	2.216580542024178e-15
	3.609753656021466e-07

 120	1.584893192461109e+04
	2.227000790027745e-15
	3.555315937056149e-07

 121	1.621810097358925e+04
	2.237704357982391e-15
	3.501635722393907e-07

 122	1.659586907437556e+04
	2.248692952219162e-15
	3.448714734279149e-07

 123	1.698243652461739e+04
	2.259968369583013e-15
	3.396553869304596e-07

 124	1.737800828749370e+04
	2.271532499480886e-15
	3.345153234296355e-07

 125	1.778279410038918e+04
	2.283387325982081e-15
	3.294512182964066e-07

 126	1.819700858609978e+04
	2.295534929970747e-15
	3.244629353027914e-07

 127	1.862087136662862e+04
	2.307977491351924e-15
	3.195502703680663e-07

 128	1.905460717963241e+04
	2.320717291315850e-15
	3.147129553028114e-07

 129	1.949844599758039e+04
	2.333756714659835e-15
	3.099506615418468e-07

 130	1.995262314968873e+04
	2.347098252174400e-15
	3.052630038389929e-07

 131	2.041737944669522e+04
	2.360744503091814e-15
	3.006495439116125e-07

 132	2.089296130854032e+04
	2.374698177601476e-15
	2.961097940234512e-07

 133	2.137962089502225e+04
	2.388962099436150e-15
	2.916432204875690e-07

 134	2.187761623949545e+04
	2.403539208529232e-15
	2.872492470795067e-07

 135	2.238721138568332e+04
	2.418432563746399e-15
	2.829272583580725e-07

 136	2.290867652767765e+04
	2.433645345696171e-15
	2.786766028767240e-07

 137	2.344228815319914e+04
	2.449180859620141e-15
	2.744965962863937e-07

 138	2.398832919019482e+04
	2.465042538365166e-15
	2.703865243245076e-07

 139	2.454708915685022e+04
	2.481233945443715e-15
	2.663456456804269e-07

 140	2.511886431509571e+04
	2.497758778181700e-15
	2.623731947429900e-07

 141	2.570395782768854e+04
	2.514620870958449e-15
	2.584683842225172e-07

 142	2.630267991895372e+04
	2.531824198541252e-15
	2.546304076504942e-07

 143	2.691534803926906e+04
	2.549372879519015e-15
	2.508584417541283e-07

 144	2.754228703338156e+04
	2.567271179834725e-15
	2.471516487086650e-07

 145	2.818382931264443e+04
	2.585523516423106e-15
	2.435091782685246e-07

 146	2.884031503126595e+04
	2.604134460955397e-15
	2.399301697779284e-07

 147	2.951209226666375e+04
	2.623108743693242e-15
	2.364137540654380e-07

 148	3.019951720402005e+04
	2.642451257457046e-15
	2.329590552227636e-07

 149	3.090295432513579e+04
	2.662167061709553e-15
	2.295651922736551e-07

 150	3.162277660168367e+04
	2.682261386759455e-15
	2.262312807342978e-07

 151	3.235936569296270e+04
	2.702739638088261e-15
	2.229564340692631e-07

 152	3.311311214825898e+04
	2.723607400802119e-15
	2.197397650476914e-07

 153	3.388441561392012e+04
	2.744870444213453e-15
	2.165803870015993e-07

 154	3.467368504525303e+04
	2.766534726554889e-15
	2.134774149925525e-07

 155	3.548133892335741e+04
	2.788606399828429e-15
	2.104299668886664e-07

 156	3.630780547700999e+04
	2.811091814794262e-15
	2.074371643576574e-07

 157	3.715352290971710e+04
	2.833997526100563e-15
	2.044981337783082e-07

 158	3.801893963205596e+04
	2.857330297560325e-15
	2.016120070757013e-07

 159	3.890451449942790e+04
	2.881097107574645e-15
	1.987779224831458e-07

 160	3.981071705534955e+04
	2.905305154709834e-15
	1.959950252355860e-07

 161	4.073802778041110e+04
	2.929961863429111e-15
	1.932624681965233e-07

 162	4.168693834703336e+04
	2.955074889982003e-15
	1.905794124242808e-07

 163	4.265795188015907e+04
	2.980652128456115e-15
	1.879450276801137e-07

 164	4.365158322401640e+04
	3.006701716993728e-15
	1.853584928804790e-07

 165	4.466835921509611e+04
	3.033232044176508e-15
	1.828189964991265e-07

 166	4.570881896148730e+04
	3.060251755580981e-15
	1.803257369204833e-07

 167	4.677351412871961e+04
	3.087769760509864e-15
	1.778779227475872e-07

 168	4.786300923226362e+04
	3.115795238899654e-15
	1.754747730684922e-07

 169	4.897788193684439e+04
	3.144337648410112e-15
	1.731155176824387e-07

 170	5.011872336272700e+04
	3.173406731697501e-15
	1.707993972903113e-07

 171	5.128613839913625e+04
	3.203012523875345e-15
	1.685256636498745e-07

 172	5.248074602497702e+04
	3.233165360165291e-15
	1.662935797000650e-07

 173	5.370317963702502e+04
	3.263875883741172e-15
	1.641024196555518e-07

 174	5.495408738576220e+04
	3.295155053770383e-15
	1.619514690741726e-07

 175	5.623413251903465e+04
	3.327014153654405e-15
	1.598400248990592e-07

 176	5.754399373371543e+04
	3.359464799471404e-15
	1.577673954779736e-07

 177	5.888436553555862e+04
	3.392518948626179e-15
	1.557329005606912e-07

 178	6.025595860743550e+04
	3.426188908706494e-15
	1.537358712775119e-07

 179	6.165950018614793e+04
	3.460487346553156e-15
	1.517756500991885e-07

 180	6.309573444801903e+04
	3.495427297543386e-15
	1.498515907810369e-07

 181	6.456542290346525e+04
	3.531022175091795e-15
	1.479630582914399e-07

 182	6.606934480075928e+04
	3.567285780372717e-15
	1.461094287274370e-07

 183	6.760829753919785e+04
	3.604232312264887e-15
	1.442900892176537e-07

 184	6.918309709189332e+04
	3.641876377522297e-15
	1.425044378140138e-07

 185	7.079457843841345e+04
	3.680233001174766e-15
	1.407518833738596e-07

 186	7.244359600749865e+04
	3.719317637160463e-15
	1.390318454325273e-07

 187	7.413102413009139e+04
	3.759146179192437e-15
	1.373437540686887e-07

 188	7.585775750291800e+04
	3.799734971863480e-15
	1.356870497618756e-07

 189	7.762471166286878e+04
	3.841100821991262e-15
	1.340611832442601e-07

 190	7.943282347242774e+04
	3.883261010206901e-15
	1.324656153468539e-07

 191	8.128305161640950e+04
	3.926233302789934e-15
	1.308998168410111e-07

 192	8.317637711026667e+04
	3.970035963752183e-15
	1.293632682757507e-07

 193	8.511380382023720e+04
	4.014687767174061e-15
	1.278554598119920e-07

 194	8.709635899560760e+04
	4.060208009795960e-15
	1.263758910536674e-07

 195	8.912509381337409e+04
	4.106616523867571e-15
	1.249240708767842e-07

 196	9.120108393559049e+04
	4.153933690258853e-15
	1.234995172566670e-07

 197	9.332543007969861e+04
	4.202180451835045e-15
	1.221017570937892e-07

 198	9.549925860214308e+04
	4.251378327099427e-15
	1.207303260389525e-07

 199	9.772372209558054e+04
	4.301549424106812e-15
	1.193847683178606e-07

 200	9.999999999999946e+04
	4.352716454652252e-15
	1.180646365556932e-07

 201	1.023292992280749e+05
	4.404902748736196e-15
	1.167694916019095e-07

 202	1.047128548050894e+05
	4.458132269312636e-15
	1.154989023556434e-07

 203	1.071519305237601e+05
	4.512429627321456e-15
	1.142524455920196e-07

 204	1.096478196143179e+05
	4.567820097010739e-15
	1.130297057896084e-07

 205	1.122018454301957e+05
	4.624329631552391e-15
	1.118302749593307e-07

 206	1.148153621496877e+05
	4.681984878954984e-15
	1.106537524749690e-07

 207	1.174897554939523e+05
	4.740813198279281e-15
	1.094997449056288e-07

 208	1.202264434617406e+05
	4.800842676160238e-15
	1.083678658503001e-07

 209	1.230268770812375e+05
	4.862102143640862e-15
	1.072577357745586e-07

 210	1.258925411794160e+05
	4.924621193323593e-15
	1.061689818499835e-07

 211	1.288249551693127e+05
	4.988430196842649e-15
	1.051012377958981e-07

 212	1.318256738556400e+05
	5.053560322666156e-15
	1.040541437240776e-07

 213	1.348962882591646e+05
	5.120043554231836e-15
	1.030273459863012e-07

 214	1.380384264602877e+05
	5.187912708421718e-15
	1.020204970248686e-07

 215	1.412537544622746e+05
	5.257201454386453e-15
	1.010332552263791e-07

 216	1.445439770745919e+05
	5.327944332721425e-15
	1.000652847785902e-07

 217	1.479108388168199e+05
	5.400176775005470e-15
	9.911625553071461e-08

 218	1.513561248436200e+05
	5.473935123708918e-15
	9.818584285703479e-08

 219	1.548816618912473e+05
	5.549256652478556e-15
	9.727372752406572e-08

 220	1.584893192461104e+05
	5.626179586807188e-15
	9.637959556111359e-08

 221	1.621810097358921e+05
	5.704743125100980e-15
	9.550313813446290e-08

 222	1.659586907437551e+05
	5.784987460148096e-15
	9.464405142515118e-08

 223	1.698243652461735e+05
	5.866953801002537e-15
	9.380203651026633e-08

 224	1.737800828749365e+05
	5.950684395293521e-15
	9.297679924797871e-08

 225	1.778279410038913e+05
	6.036222551967775e-15
	9.216805016606277e-08

 226	1.819700858609973e+05
	6.123612664480446e-15
	9.137550435407363e-08

 227	1.862087136662857e+05
	6.212900234442744e-15
	9.059888135911584e-08

 228	1.905460717963236e+05
	6.304131895741393e-15
	8.983790508512502e-08

 229	1.949844599758034e+05
	6.397355439141094e-15
	8.909230369567999e-08

 230	1.995262314968868e+05
	6.492619837384313e-15
	8.836180952021335e-08

 231	2.041737944669517e+05
	6.589975270800349e-15
	8.764615896375941e-08

 232	2.089296130854027e+05
	6.689473153441579e-15
	8.694509241992464e-08

 233	2.137962089502219e+05
	6.791166159759547e-15
	8.625835418718046e-08

 234	2.187761623949539e+05
	6.895108251835756e-15
	8.558569238836073e-08

 235	2.238721138568326e+05
	7.001354707185104e-15
	8.492685889331091e-08

 236	2.290867652767759e+05
	7.109962147149000e-15
	8.428160924450815e-08

 237	2.344228815319907e+05
	7.220988565892496e-15
	8.364970258568984e-08

 238	2.398832919019475e+05
	7.334493360027174e-15
	8.303090159338285e-08

 239	2.454708915685015e+05
	7.450537358874171e-15
	8.242497241106563e-08

 240	2.511886431509564e+05
	7.569182855390806e-15
	8.183168458620248e-08

 241	2.570395782768847e+05
	7.690493637775268e-15
	8.125081100964774e-08

 242	2.630267991895365e+05
	7.814535021774298e-15
	8.068212785770477e-08

 243	2.691534803926898e+05
	7.941373883710602e-15
	8.012541453645805e-08

 244	2.754228703338148e+05
	8.071078694255001e-15
	7.958045362843655e-08

 245	2.818382931264435e+05
	8.203719552960557e-15
	7.904703084143568e-08

 246	2.884031503126587e+05
	8.339368223585587e-15
	7.852493495942641e-08

 247	2.951209226666366e+05
	8.478098170225673e-15
	7.801395779547890e-08

 248	3.019951720401996e+05
	8.619984594278548e-15
	7.751389414651731e-08

 249	3.090295432513569e+05
	8.765104472266484e-15
	7.702454174994946e-08

 250	3.162277660168358e+05
	8.913536594541479e-15
	7.654570124189153e-08

 251	3.235936569296260e+05
	9.065361604894487e-15
	7.607717611710416e-08

 252	3.311311214825888e+05
	9.220662041100237e-15
	7.561877269037057e-08

 253	3.388441561392001e+05
	9.379522376418744e-15
	7.517030005932803e-08

 254	3.467368504525292e+05
	9.542029062081871e-15
	7.473157006862391e-08

 255	3.548133892335729e+05
	9.708270570794660e-15
	7.430239727537754e-08

 256	3.630780547700987e+05
	9.878337441273172e-15
	7.388259891573534e-08

 257	3.715352290971698e+05
	1.005232232385536e-14
	7.347199487257541e-08

 258	3.801893963205584e+05
	1.023032002720452e-14
	7.307040764422907e-08

 259	3.890451449942777e+05
	1.041242756614366e-14
	7.267766231411029e-08

 260	3.981071705534943e+05
	1.059874421064278e-14
	7.229358652121718e-08

 261	4.073802778041097e+05
	1.078937153599606e-14
	7.191801043147791e-08

 262	4.168693834703322e+05
	1.098441347421554e-14
	7.155076670977912e-08

 263	4.265795188015894e+05
	1.118397636667370e-14
	7.119169049266994e-08

 264	4.365158322401627e+05
	1.138816901802824e-14
	7.084061936170422e-08

 265	4.466835921509597e+05
	1.159710275146117e-14
	7.049739331729533e-08

 266	4.570881896148715e+05
	1.181089146526474e-14
