Title: spice
Date: Wed Jul 30 09:33:45  2025
Command: ngspice-44.2, Build 
Plotname: Sensitivity Analysis
Flags: complex
No. Variables: 102
No. Points: 31      
Variables:
	0	frequency	frequency	grid=3
	1	v(m1:vto)	voltage
	2	v(m1:kp)	voltage
	3	v(m1:gamma)	voltage
	4	v(m1:phi)	voltage
	5	v(m1:lambda)	voltage
	6	v(m1:rd)	voltage
	7	v(m1:rs)	voltage
	8	v(m1:cbd)	voltage
	9	v(m1:cbs)	voltage
	10	v(m1:is)	voltage
	11	v(m1:pb)	voltage
	12	v(m1:cgso)	voltage
	13	v(m1:cgdo)	voltage
	14	v(m1:cgbo)	voltage
	15	v(m1:rsh)	voltage
	16	v(m1:cj)	voltage
	17	v(m1:mj)	voltage
	18	v(m1:cjsw)	voltage
	19	v(m1:mjsw)	voltage
	20	v(m1:js)	voltage
	21	v(m1:tox)	voltage
	22	v(m1:ld)	voltage
	23	v(m1:u0)	voltage
	24	v(m1:fc)	voltage
	25	v(m1:nsub)	voltage
	26	v(m1:nss)	voltage
	27	v(m1:tnom)	voltage
	28	v(m1:kf)	voltage
	29	v(m1:af)	voltage
	30	v(m1:gdsnoi)	voltage
	31	v(m1_m)	voltage
	32	v(m1_l)	voltage
	33	v(m1_w)	voltage
	34	v(m1_ad)	voltage
	35	v(m1_as)	voltage
	36	v(m1_pd)	voltage
	37	v(m1_ps)	voltage
	38	v(m1_nrd)	voltage
	39	v(m1_nrs)	voltage
	40	v(m1_icvds)	voltage
	41	v(m1_icvgs)	voltage
	42	v(m1_icvbs)	voltage
	43	v(m1_temp)	voltage
	44	v(m1_dtemp)	voltage
	45	v(r2:rsh)	voltage
	46	v(r2:narrow)	voltage
	47	v(r2:short)	voltage
	48	v(r2:tc1)	voltage
	49	v(r2:tc2)	voltage
	50	v(r2:tce)	voltage
	51	v(r2:kf)	voltage
	52	v(r2:af)	voltage
	53	v(r2:r)	voltage
	54	v(r2:bv_max)	voltage
	55	v(r2:lf)	voltage
	56	v(r2:wf)	voltage
	57	v(r2:ef)	voltage
	58	v(r2)	voltage
	59	v(r2_ac)	voltage
	60	v(r2_temp)	voltage
	61	v(r2_dtemp)	voltage
	62	v(r2_l)	voltage
	63	v(r2_w)	voltage
	64	v(r2_m)	voltage
	65	v(r2_tc)	voltage
	66	v(r2_tc2)	voltage
	67	v(r2_tce)	voltage
	68	v(r2_bv_max)	voltage
	69	v(r2_scale)	voltage
	70	v(r1:rsh)	voltage
	71	v(r1:narrow)	voltage
	72	v(r1:short)	voltage
	73	v(r1:tc1)	voltage
	74	v(r1:tc2)	voltage
	75	v(r1:tce)	voltage
	76	v(r1:kf)	voltage
	77	v(r1:af)	voltage
	78	v(r1:r)	voltage
	79	v(r1:bv_max)	voltage
	80	v(r1:lf)	voltage
	81	v(r1:wf)	voltage
	82	v(r1:ef)	voltage
	83	v(r1)	voltage
	84	v(r1_ac)	voltage
	85	v(r1_temp)	voltage
	86	v(r1_dtemp)	voltage
	87	v(r1_l)	voltage
	88	v(r1_w)	voltage
	89	v(r1_m)	voltage
	90	v(r1_tc)	voltage
	91	v(r1_tc2)	voltage
	92	v(r1_tce)	voltage
	93	v(r1_bv_max)	voltage
	94	v(r1_scale)	voltage
	95	v(v1)	voltage
	96	v(v1_acmag)	voltage
	97	v(v1_acphase)	voltage
	98	v(v1_z0)	voltage
	99	v(v1_pwr)	voltage
	100	v(v1_freq)	voltage
	101	v(v1_phase)	voltage
Values:
0		1.000000000000000e+02,5.215019343867527e-310
	-0.000000000000000e+00,0.000000000000000e+00
	-0.000000000000000e+00,0.000000000000000e+00
	-0.000000000000000e+00,0.000000000000000e+00
	-0.000000000000000e+00,0.000000000000000e+00
	-0.000000000000000e+00,0.000000000000000e+00
	-0.000000000000000e+00,0.000000000000000e+00
	-0.000000000000000e+00,0.000000000000000e+00
	-0.000000000000000e+00,0.000000000000000e+00
	-0.000000000000000e+00,0.000000000000000e+00
	-0.000000000000000e+00,0.000000000000000e+00
	-0.000000000000000e+00,0.000000000000000e+00
	-0.000000000000000e+00,0.000000000000000e+00
	-0.000000000000000e+00,0.000000000000000e+00
	-0.000000000000000e+00,0.000000000000000e+00
	-0.000000000000000e+00,0.000000000000000e+00
	-0.000000000000000e+00,0.000000000000000e+00
	-0.000000000000000e+00,0.000000000000000e+00
	-0.000000000000000e+00,0.000000000000000e+00
	-0.000000000000000e+00,0.000000000000000e+00
	-0.000000000000000e+00,0.000000000000000e+00
	-0.000000000000000e+00,0.000000000000000e+00
	-0.000000000000000e+00,0.000000000000000e+00
	-0.000000000000000e+00,0.000000000000000e+00
	-0.000000000000000e+00,0.000000000000000e+00
	-0.000000000000000e+00,0.000000000000000e+00
	-0.000000000000000e+00,0.000000000000000e+00
	-0.000000000000000e+00,0.000000000000000e+00
	-0.000000000000000e+00,0.000000000000000e+00
	-0.000000000000000e+00,0.000000000000000e+00
	-0.000000000000000e+00,0.000000000000000e+00
	-0.000000000000000e+00,0.000000000000000e+00
	-0.000000000000000e+00,0.000000000000000e+00
	-0.000000000000000e+00,0.000000000000000e+00
	-0.000000000000000e+00,0.000000000000000e+00
	-0.000000000000000e+00,0.000000000000000e+00
	-0.000000000000000e+00,0.000000000000000e+00
	-0.000000000000000e+00,0.000000000000000e+00
	-0.000000000000000e+00,0.000000000000000e+00
	-0.000000000000000e+00,0.000000000000000e+00
	-0.000000000000000e+00,0.000000000000000e+00
	-0.000000000000000e+00,0.000000000000000e+00
	-0.000000000000000e+00,0.000000000000000e+00
	-0.000000000000000e+00,0.000000000000000e+00
	-0.000000000000000e+00,0.000000000000000e+00
	-0.000000000000000e+00,0.000000000000000e+00
	-0.000000000000000e+00,0.000000000000000e+00
	-0.000000000000000e+00,0.000000000000000e+00
	-0.000000000000000e+00,0.000000000000000e+00
	-0.000000000000000e+00,0.000000000000000e+00
	-0.000000000000000e+00,0.000000000000000e+00
	-0.000000000000000e+00,0.000000000000000e+00
	-0.000000000000000e+00,0.000000000000000e+00
	-0.000000000000000e+00,0.000000000000000e+00
	-0.000000000000000e+00,0.000000000000000e+00
	-0.000000000000000e+00,0.000000000000000e+00
	-0.000000000000000e+00,0.000000000000000e+00
	-0.000000000000000e+00,0.000000000000000e+00
	-0.000000000000000e+00,0.000000000000000e+00
	-0.000000000000000e+00,0.000000000000000e+00
	-0.000000000000000e+00,0.000000000000000e+00
	-0.000000000000000e+00,0.000000000000000e+00
	-0.000000000000000e+00,0.000000000000000e+00
	-0.000000000000000e+00,0.000000000000000e+00
	-0.000000000000000e+00,0.000000000000000e+00
	-0.000000000000000e+00,0.000000000000000e+00
	-0.000000000000000e+00,0.000000000000000e+00
	-0.000000000000000e+00,0.000000000000000e+00
	-0.000000000000000e+00,0.000000000000000e+00
	-0.000000000000000e+00,0.000000000000000e+00
	-0.000000000000000e+00,0.000000000000000e+00
	-0.000000000000000e+00,0.000000000000000e+00
	-0.000000000000000e+00,0.000000000000000e+00
	-0.000000000000000e+00,0.000000000000000e+00
	-0.000000000000000e+00,0.000000000000000e+00
	-0.000000000000000e+00,0.000000000000000e+00
	-0.000000000000000e+00,0.000000000000000e+00
	-0.000000000000000e+00,0.000000000000000e+00
	-0.000000000000000e+00,0.000000000000000e+00
	-0.000000000000000e+00,0.000000000000000e+00
	-0.000000000000000e+00,0.000000000000000e+00
	-0.000000000000000e+00,0.000000000000000e+00
	-0.000000000000000e+00,0.000000000000000e+00
	-0.000000000000000e+00,0.000000000000000e+00
	-0.000000000000000e+00,0.000000000000000e+00
	-0.000000000000000e+00,0.000000000000000e+00
	-0.000000000000000e+00,0.000000000000000e+00
	-0.000000000000000e+00,0.000000000000000e+00
	-0.000000000000000e+00,0.000000000000000e+00
	-0.000000000000000e+00,0.000000000000000e+00
	-0.000000000000000e+00,0.000000000000000e+00
	-0.000000000000000e+00,0.000000000000000e+00
	-0.000000000000000e+00,0.000000000000000e+00
	-0.000000000000000e+00,0.000000000000000e+00
	-0.000000000000000e+00,0.000000000000000e+00
	-0.000000000000000e+00,-0.000000000000000e+00
	4.999999999996533e-01,-0.000000000000000e+00
	-0.000000000000000e+00,-0.000000000000000e+00
	-0.000000000000000e+00,-0.000000000000000e+00
	-0.000000000000000e+00,-0.000000000000000e+00
	-0.000000000000000e+00,-0.000000000000000e+00
	-0.000000000000000e+00,-0.000000000000000e+00
1		1.258925411794167e+02,5.215019343867527e-310
	-0.000000000000000e+00,0.000000000000000e+00
	-0.000000000000000e+00,0.000000000000000e+00
	-0.000000000000000e+00,0.000000000000000e+00
	-0.000000000000000e+00,0.000000000000000e+00
	-0.000000000000000e+00,0.000000000000000e+00
	-0.000000000000000e+00,0.000000000000000e+00
	-0.000000000000000e+00,0.000000000000000e+00
	-0.000000000000000e+00,0.000000000000000e+00
	-0.000000000000000e+00,0.000000000000000e+00
	-0.000000000000000e+00,0.000000000000000e+00
	-0.000000000000000e+00,0.000000000000000e+00
	-0.000000000000000e+00,0.000000000000000e+00
	-0.000000000000000e+00,0.000000000000000e+00
	-0.000000000000000e+00,0.000000000000000e+00
	-0.000000000000000e+00,0.000000000000000e+00
	-0.000000000000000e+00,0.000000000000000e+00
	-0.000000000000000e+00,0.000000000000000e+00
	-0.000000000000000e+00,0.000000000000000e+00
	-0.000000000000000e+00,0.000000000000000e+00
	-0.000000000000000e+00,0.000000000000000e+00
	-0.000000000000000e+00,0.000000000000000e+00
	-0.000000000000000e+00,0.000000000000000e+00
	-0.000000000000000e+00,0.000000000000000e+00
	-0.000000000000000e+00,0.000000000000000e+00
	-0.000000000000000e+00,0.000000000000000e+00
	-0.000000000000000e+00,0.000000000000000e+00
	-0.000000000000000e+00,0.000000000000000e+00
	-0.000000000000000e+00,0.000000000000000e+00
	-0.000000000000000e+00,0.000000000000000e+00
	-0.000000000000000e+00,0.000000000000000e+00
	-0.000000000000000e+00,0.000000000000000e+00
	-0.000000000000000e+00,0.000000000000000e+00
	-0.000000000000000e+00,0.000000000000000e+00
	-0.000000000000000e+00,0.000000000000000e+00
	-0.000000000000000e+00,0.000000000000000e+00
	-0.000000000000000e+00,0.000000000000000e+00
	-0.000000000000000e+00,0.000000000000000e+00
	-0.000000000000000e+00,0.000000000000000e+00
	-0.000000000000000e+00,0.000000000000000e+00
	-0.000000000000000e+00,0.000000000000000e+00
	-0.000000000000000e+00,0.000000000000000e+00
	-0.000000000000000e+00,0.000000000000000e+00
	-0.000000000000000e+00,0.000000000000000e+00
	-0.000000000000000e+00,0.000000000000000e+00
	-0.000000000000000e+00,0.000000000000000e+00
	-0.000000000000000e+00,0.000000000000000e+00
	-0.000000000000000e+00,0.000000000000000e+00
	-0.000000000000000e+00,0.000000000000000e+00
	-0.000000000000000e+00,0.000000000000000e+00
	-0.000000000000000e+00,0.000000000000000e+00
	-0.000000000000000e+00,0.000000000000000e+00
	-0.000000000000000e+00,0.000000000000000e+00
	-0.000000000000000e+00,0.000000000000000e+00
	-0.000000000000000e+00,0.000000000000000e+00
	-0.000000000000000e+00,0.000000000000000e+00
	-0.000000000000000e+00,0.000000000000000e+00
	-0.000000000000000e+00,0.000000000000000e+00
	-0.000000000000000e+00,0.000000000000000e+00
	-0.000000000000000e+00,0.000000000000000e+00
	-0.000000000000000e+00,0.000000000000000e+00
	-0.000000000000000e+00,0.000000000000000e+00
	-0.000000000000000e+00,0.000000000000000e+00
	-0.000000000000000e+00,0.000000000000000e+00
	-0.000000000000000e+00,0.000000000000000e+00
	-0.000000000000000e+00,0.000000000000000e+00
	-0.000000000000000e+00,0.000000000000000e+00
	-0.000000000000000e+00,0.000000000000000e+00
	-0.000000000000000e+00,0.000000000000000e+00
	-0.000000000000000e+00,0.000000000000000e+00
	-0.000000000000000e+00,0.000000000000000e+00
	-0.000000000000000e+00,0.000000000000000e+00
	-0.000000000000000e+00,0.000000000000000e+00
	-0.000000000000000e+00,0.000000000000000e+00
	-0.000000000000000e+00,0.000000000000000e+00
	-0.000000000000000e+00,0.000000000000000e+00
	-0.000000000000000e+00,0.000000000000000e+00
	-0.000000000000000e+00,0.000000000000000e+00
	-0.000000000000000e+00,0.000000000000000e+00
	-0.000000000000000e+00,0.000000000000000e+00
	-0.000000000000000e+00,0.000000000000000e+00
	-0.000000000000000e+00,0.000000000000000e+00
	-0.000000000000000e+00,0.000000000000000e+00
	-0.000000000000000e+00,0.000000000000000e+00
	-0.000000000000000e+00,0.000000000000000e+00
	-0.000000000000000e+00,0.000000000000000e+00
	-0.000000000000000e+00,0.000000000000000e+00
	-0.000000000000000e+00,0.000000000000000e+00
	-0.000000000000000e+00,0.000000000000000e+00
	-0.000000000000000e+00,0.000000000000000e+00
	-0.000000000000000e+00,0.000000000000000e+00
	-0.000000000000000e+00,0.000000000000000e+00
	-0.000000000000000e+00,0.000000000000000e+00
	-0.000000000000000e+00,0.000000000000000e+00
	-0.000000000000000e+00,0.000000000000000e+00
	-0.000000000000000e+00,-0.000000000000000e+00
	4.999999999996533e-01,-0.000000000000000e+00
	-0.000000000000000e+00,-0.000000000000000e+00
	-0.000000000000000e+00,-0.000000000000000e+00
	-0.000000000000000e+00,-0.000000000000000e+00
	-0.000000000000000e+00,-0.000000000000000e+00
	-0.000000000000000e+00,-0.000000000000000e+00
2		1.584893192461114e+02,5.215019343867527e-310
	-0.000000000000000e+00,0.000000000000000e+00
	-0.000000000000000e+00,0.000000000000000e+00
	-0.000000000000000e+00,0.000000000000000e+00
	-0.000000000000000e+00,0.000000000000000e+00
	-0.000000000000000e+00,0.000000000000000e+00
	-0.000000000000000e+00,0.000000000000000e+00
	-0.000000000000000e+00,0.000000000000000e+00
	-0.000000000000000e+00,0.000000000000000e+00
	-0.000000000000000e+00,0.000000000000000e+00
	-0.000000000000000e+00,0.000000000000000e+00
	-0.000000000000000e+00,0.000000000000000e+00
	-0.000000000000000e+00,0.000000000000000e+00
	-0.000000000000000e+00,0.000000000000000e+00
	-0.000000000000000e+00,0.000000000000000e+00
	-0.000000000000000e+00,0.000000000000000e+00
	-0.000000000000000e+00,0.000000000000000e+00
	-0.000000000000000e+00,0.000000000000000e+00
	-0.000000000000000e+00,0.000000000000000e+00
	-0.000000000000000e+00,0.000000000000000e+00
	-0.000000000000000e+00,0.000000000000000e+00
	-0.000000000000000e+00,0.000000000000000e+00
	-0.000000000000000e+00,0.000000000000000e+00
	-0.000000000000000e+00,0.000000000000000e+00
	-0.000000000000000e+00,0.000000000000000e+00
	-0.000000000000000e+00,0.000000000000000e+00
	-0.000000000000000e+00,0.000000000000000e+00
	-0.000000000000000e+00,0.000000000000000e+00
	-0.000000000000000e+00,0.000000000000000e+00
	-0.000000000000000e+00,0.000000000000000e+00
	-0.000000000000000e+00,0.000000000000000e+00
	-0.000000000000000e+00,0.000000000000000e+00
	-0.000000000000000e+00,0.000000000000000e+00
	-0.000000000000000e+00,0.000000000000000e+00
	-0.000000000000000e+00,0.000000000000000e+00
	-0.000000000000000e+00,0.000000000000000e+00
	-0.000000000000000e+00,0.000000000000000e+00
	-0.000000000000000e+00,0.000000000000000e+00
	-0.000000000000000e+00,0.000000000000000e+00
	-0.000000000000000e+00,0.000000000000000e+00
	-0.000000000000000e+00,0.000000000000000e+00
	-0.000000000000000e+00,0.000000000000000e+00
	-0.000000000000000e+00,0.000000000000000e+00
	-0.000000000000000e+00,0.000000000000000e+00
	-0.000000000000000e+00,0.000000000000000e+00
	-0.000000000000000e+00,0.000000000000000e+00
	-0.000000000000000e+00,0.000000000000000e+00
	-0.000000000000000e+00,0.000000000000000e+00
	-0.000000000000000e+00,0.000000000000000e+00
	-0.000000000000000e+00,0.000000000000000e+00
	-0.000000000000000e+00,0.000000000000000e+00
	-0.000000000000000e+00,0.000000000000000e+00
	-0.000000000000000e+00,0.000000000000000e+00
	-0.000000000000000e+00,0.000000000000000e+00
	-0.000000000000000e+00,0.000000000000000e+00
	-0.000000000000000e+00,0.000000000000000e+00
	-0.000000000000000e+00,0.000000000000000e+00
	-0.000000000000000e+00,0.000000000000000e+00
	-0.000000000000000e+00,0.000000000000000e+00
	-0.000000000000000e+00,0.000000000000000e+00
	-0.000000000000000e+00,0.000000000000000e+00
	-0.000000000000000e+00,0.000000000000000e+00
	-0.000000000000000e+00,0.000000000000000e+00
	-0.000000000000000e+00,0.000000000000000e+00
	-0.000000000000000e+00,0.000000000000000e+00
	-0.000000000000000e+00,0.000000000000000e+00
	-0.000000000000000e+00,0.000000000000000e+00
	-0.000000000000000e+00,0.000000000000000e+00
	-0.000000000000000e+00,0.000000000000000e+00
	-0.000000000000000e+00,0.000000000000000e+00
	-0.000000000000000e+00,0.000000000000000e+00
	-0.000000000000000e+00,0.000000000000000e+00
	-0.000000000000000e+00,0.000000000000000e+00
	-0.000000000000000e+00,0.000000000000000e+00
	-0.000000000000000e+00,0.000000000000000e+00
	-0.000000000000000e+00,0.000000000000000e+00
	-0.000000000000000e+00,0.000000000000000e+00
	-0.000000000000000e+00,0.000000000000000e+00
	-0.000000000000000e+00,0.000000000000000e+00
	-0.000000000000000e+00,0.000000000000000e+00
	-0.000000000000000e+00,0.000000000000000e+00
	-0.000000000000000e+00,0.000000000000000e+00
	-0.000000000000000e+00,0.000000000000000e+00
	-0.000000000000000e+00,0.000000000000000e+00
	-0.000000000000000e+00,0.000000000000000e+00
	-0.000000000000000e+00,0.000000000000000e+00
	-0.000000000000000e+00,0.000000000000000e+00
	-0.000000000000000e+00,0.000000000000000e+00
	-0.000000000000000e+00,0.000000000000000e+00
	-0.000000000000000e+00,0.000000000000000e+00
	-0.000000000000000e+00,0.000000000000000e+00
	-0.000000000000000e+00,0.000000000000000e+00
	-0.000000000000000e+00,0.000000000000000e+00
	-0.000000000000000e+00,0.000000000000000e+00
	-0.000000000000000e+00,0.000000000000000e+00
	-0.000000000000000e+00,-0.000000000000000e+00
	4.999999999996533e-01,-0.000000000000000e+00
	-0.000000000000000e+00,-0.000000000000000e+00
	-0.000000000000000e+00,-0.000000000000000e+00
	-0.000000000000000e+00,-0.000000000000000e+00
	-0.000000000000000e+00,-0.000000000000000e+00
	-0.000000000000000e+00,-0.000000000000000e+00
3		1.995262314968880e+02,5.215019343867527e-310
	-0.000000000000000e+00,0.000000000000000e+00
	-0.000000000000000e+00,0.000000000000000e+00
	-0.000000000000000e+00,0.000000000000000e+00
	-0.000000000000000e+00,0.000000000000000e+00
	-0.000000000000000e+00,0.000000000000000e+00
	-0.000000000000000e+00,0.000000000000000e+00
	-0.000000000000000e+00,0.000000000000000e+00
	-0.000000000000000e+00,0.000000000000000e+00
	-0.000000000000000e+00,0.000000000000000e+00
	-0.000000000000000e+00,0.000000000000000e+00
	-0.000000000000000e+00,0.000000000000000e+00
	-0.000000000000000e+00,0.000000000000000e+00
	-0.000000000000000e+00,0.000000000000000e+00
	-0.000000000000000e+00,0.000000000000000e+00
	-0.000000000000000e+00,0.000000000000000e+00
	-0.000000000000000e+00,0.000000000000000e+00
	-0.000000000000000e+00,0.000000000000000e+00
	-0.000000000000000e+00,0.000000000000000e+00
	-0.000000000000000e+00,0.000000000000000e+00
	-0.000000000000000e+00,0.000000000000000e+00
	-0.000000000000000e+00,0.000000000000000e+00
	-0.000000000000000e+00,0.000000000000000e+00
	-0.000000000000000e+00,0.000000000000000e+00
	-0.000000000000000e+00,0.000000000000000e+00
	-0.000000000000000e+00,0.000000000000000e+00
	-0.000000000000000e+00,0.000000000000000e+00
	-0.000000000000000e+00,0.000000000000000e+00
	-0.000000000000000e+00,0.000000000000000e+00
	-0.000000000000000e+00,0.000000000000000e+00
	-0.000000000000000e+00,0.000000000000000e+00
	-0.000000000000000e+00,0.000000000000000e+00
	-0.000000000000000e+00,0.000000000000000e+00
	-0.000000000000000e+00,0.000000000000000e+00
	-0.000000000000000e+00,0.000000000000000e+00
	-0.000000000000000e+00,0.000000000000000e+00
	-0.000000000000000e+00,0.000000000000000e+00
	-0.000000000000000e+00,0.000000000000000e+00
	-0.000000000000000e+00,0.000000000000000e+00
	-0.000000000000000e+00,0.000000000000000e+00
	-0.000000000000000e+00,0.000000000000000e+00
	-0.000000000000000e+00,0.000000000000000e+00
	-0.000000000000000e+00,0.000000000000000e+00
	-0.000000000000000e+00,0.000000000000000e+00
	-0.000000000000000e+00,0.000000000000000e+00
	-0.000000000000000e+00,0.000000000000000e+00
	-0.000000000000000e+00,0.000000000000000e+00
	-0.000000000000000e+00,0.000000000000000e+00
	-0.000000000000000e+00,0.000000000000000e+00
	-0.000000000000000e+00,0.000000000000000e+00
	-0.000000000000000e+00,0.000000000000000e+00
	-0.000000000000000e+00,0.000000000000000e+00
	-0.000000000000000e+00,0.000000000000000e+00
	-0.000000000000000e+00,0.000000000000000e+00
	-0.000000000000000e+00,0.000000000000000e+00
	-0.000000000000000e+00,0.000000000000000e+00
	-0.000000000000000e+00,0.000000000000000e+00
	-0.000000000000000e+00,0.000000000000000e+00
	-0.000000000000000e+00,0.000000000000000e+00
	-0.000000000000000e+00,0.000000000000000e+00
	-0.000000000000000e+00,0.000000000000000e+00
	-0.000000000000000e+00,0.000000000000000e+00
	-0.000000000000000e+00,0.000000000000000e+00
	-0.000000000000000e+00,0.000000000000000e+00
	-0.000000000000000e+00,0.000000000000000e+00
	-0.000000000000000e+00,0.000000000000000e+00
	-0.000000000000000e+00,0.000000000000000e+00
	-0.000000000000000e+00,0.000000000000000e+00
	-0.000000000000000e+00,0.000000000000000e+00
	-0.000000000000000e+00,0.000000000000000e+00
	-0.000000000000000e+00,0.000000000000000e+00
	-0.000000000000000e+00,0.000000000000000e+00
	-0.000000000000000e+00,0.000000000000000e+00
	-0.000000000000000e+00,0.000000000000000e+00
	-0.000000000000000e+00,0.000000000000000e+00
