Title: spice
Date: Wed Jul 30 09:05:45 2025
Plotname: Transient Analysis
Flags: real
No. Variables: 4
No. Points: 11                
Variables:
	0	time	time
	1	V(1)	voltage
	2	V(2)	voltage
	3	V1#branch	current
Values:
0	0.00000000e+00
	0.00000000e+00
	5.00000000e-13
	5.00000000e-13

1	1.00000000e-01
	1.00000000e-01
	5.00000000e-02
	-5.00000000e-02

2	2.00000000e-01
	2.00000000e-01
	1.00000000e-01
	-1.00000000e-01

3	3.00000000e-01
	3.00000000e-01
	1.50000000e-01
	-1.50000000e-01

4	4.00000000e-01
	4.00000000e-01
	2.00000000e-01
	-2.00000000e-01

5	5.00000000e-01
	5.00000000e-01
	2.50000000e-01
	-2.50000000e-01

6	6.00000000e-01
	6.00000000e-01
	2.99999999e-01
	-3.00000001e-01

7	7.00000000e-01
	7.00000000e-01
	3.49999995e-01
	-3.50000005e-01

8	8.00000000e-01
	8.00000000e-01
	3.99999973e-01
	-4.00000027e-01

9	9.00000000e-01
	9.00000000e-01
	4.49999785e-01
	-4.50000215e-01

10	1.00000000e+00
	1.00000000e+00
	4.99998757e-01
	-5.00001243e-01

TIME,V(1),R1:R,R2:R,{V(2)},d_{V(2)}/d_R2:R_adj
2.50000000e-01,2.50000000e-01,1.00000000e+00,1.00000000e+00,1.25000000e-01,6.25000000e-02
5.00000000e-01,5.00000000e-01,1.00000000e+00,1.00000000e+00,2.50000000e-01,1.25000000e-01
7.50000000e-01,7.50000000e-01,1.00000000e+00,1.00000000e+00,3.74999990e-01,1.87499923e-01
