Title: * step test file for ngspice with some constructions that may be helpful
Date: Mon Aug  4 09:41:50  2025
Command: ngspice-44.2, Build 
Plotname: Transient Analysis
Flags: real
No. Variables: 4
No. Points: 5024
Variables:
	0	time	time
	1	v(in)	voltage
	2	v(out)	voltage
	3	100	notype dims=1
Values:
 0	0.000000000000000e+00
	0.000000000000000e+00
	0.000000000000000e+00
	1.000000000000000e+02

 1	1.000000000000000e-11
	1.000000000000000e-02
	9.999999899999904e-11
	0.000000000000000e+00

 2	1.280000005600008e-11
	1.280000005600008e-02
	1.358399994932480e-10
	0.000000000000000e+00

 3	1.840000016800025e-11
	1.840000016800025e-02
	2.232000008623384e-10
	0.000000000000000e+00

 4	2.960000039200059e-11
	2.960000039200059e-02
	4.920000053692261e-10
	0.000000000000000e+00

 5	5.200000084000125e-11
	5.200000084000125e-02
	1.405920016189331e-09
	0.000000000000000e+00

 6	9.680000173600260e-11
	9.680000173600259e-02
	4.739040002906778e-09
	0.000000000000000e+00

 7	1.864000035280053e-10
	1.864000035280053e-01
	1.742639949946427e-08
	0.000000000000000e+00

 8	3.656000071120107e-10
	3.656000071120106e-01
	6.688559388755201e-08
	0.000000000000000e+00

 9	7.240000142800213e-10
	7.240000142800213e-01
	2.621418626630462e-07
	0.000000000000000e+00

 10	1.000000000000000e-09
	1.000000000000000e+00
	5.000537471380027e-07
	0.000000000000000e+00

 11	1.071680001433602e-09
	1.000000000000000e+00
	5.717337075881990e-07
	0.000000000000000e+00

 12	1.215040004300806e-09
	1.000000000000000e+00
	7.150936182118917e-07
	0.000000000000000e+00

 13	1.501760010035215e-09
	1.000000000000000e+00
	1.001813377798204e-06
	0.000000000000000e+00

 14	2.075200021504032e-09
	1.000000000000000e+00
	1.575252650317783e-06
	0.000000000000000e+00

 15	3.222080044441666e-09
	1.000000000000000e+00
	2.722130208674755e-06
	0.000000000000000e+00

 16	5.515840090316934e-09
	1.000000000000000e+00
	5.015881378099913e-06
	0.000000000000000e+00

 17	1.010336018206747e-08
	1.000000000000000e+00
	9.603367923314800e-06
	0.000000000000000e+00

 18	1.927840036556855e-08
	1.000000000000000e+00
	1.877827780336097e-05
	0.000000000000000e+00

 19	3.762848073257069e-08
	1.000000000000000e+00
	3.712784443518964e-05
	0.000000000000000e+00

 20	7.432864146657499e-08
	1.000000000000000e+00
	7.382596289205383e-05
	0.000000000000000e+00

 21	1.477289629345836e-07
	1.000000000000000e+00
	1.472181222302302e-04
	0.000000000000000e+00

 22	2.945296058706008e-07
	1.000000000000000e+00
	2.939859838418942e-04
	0.000000000000000e+00

 23	5.881308917426351e-07
	1.000000000000000e+00
	5.874547051024516e-04
	0.000000000000000e+00

 24	1.175333463486704e-06
	1.000000000000000e+00
	1.174114756568325e-03
	0.000000000000000e+00

 25	2.175333463486704e-06
	1.000000000000000e+00
	2.172288912910628e-03
	0.000000000000000e+00

 26	3.175333463486703e-06
	1.000000000000000e+00
	3.169248303957076e-03
	0.000000000000000e+00

 27	4.175333463486703e-06
	1.000000000000000e+00
	4.164894500209350e-03
	0.000000000000000e+00

 28	5.175333463486703e-06
	1.000000000000000e+00
	5.159129301797549e-03
	0.000000000000000e+00

 29	6.175333463486703e-06
	1.000000000000000e+00
	6.151854748065521e-03
	0.000000000000000e+00

 30	7.175333463486702e-06
	1.000000000000000e+00
	7.142973127122704e-03
	0.000000000000000e+00

 31	8.175333463486703e-06
	1.000000000000000e+00
	8.132386985361549e-03
	0.000000000000000e+00

 32	9.175333463486703e-06
	1.000000000000000e+00
	9.119999136939618e-03
	0.000000000000000e+00

 33	1.017533346348670e-05
	1.000000000000000e+00
	1.010571267322544e-02
	0.000000000000000e+00

 34	1.117533346348670e-05
	1.000000000000000e+00
	1.108943097220724e-02
	0.000000000000000e+00

 35	1.217533346348671e-05
	1.000000000000000e+00
	1.207105770786358e-02
	0.000000000000000e+00

 36	1.317533346348671e-05
	1.000000000000000e+00
	1.305049685949510e-02
	0.000000000000000e+00

 37	1.417533346348671e-05
	1.000000000000000e+00
	1.402765272101633e-02
	0.000000000000000e+00

 38	1.517533346348671e-05
	1.000000000000000e+00
	1.500242991020692e-02
	0.000000000000000e+00

 39	1.617533346348671e-05
	1.000000000000000e+00
	1.597473337792107e-02
	0.000000000000000e+00

 40	1.717533346348671e-05
	1.000000000000000e+00
	1.694446841725461e-02
	0.000000000000000e+00

 41	1.817533346348671e-05
	1.000000000000000e+00
	1.791154067266865e-02
	0.000000000000000e+00

 42	1.917533346348671e-05
	1.000000000000000e+00
	1.887585614906900e-02
	0.000000000000000e+00

 43	2.017533346348671e-05
	1.000000000000000e+00
	1.983732122084047e-02
	0.000000000000000e+00

 44	2.117533346348671e-05
	1.000000000000000e+00
	2.079584264083527e-02
	0.000000000000000e+00

 45	2.217533346348671e-05
	1.000000000000000e+00
	2.175132754931453e-02
	0.000000000000000e+00

 46	2.317533346348671e-05
	1.000000000000000e+00
	2.270368348284223e-02
	0.000000000000000e+00

 47	2.417533346348671e-05
	1.000000000000000e+00
	2.365281838313057e-02
	0.000000000000000e+00

 48	2.517533346348671e-05
	1.000000000000000e+00
	2.459864060583604e-02
	0.000000000000000e+00

 49	2.617533346348671e-05
	1.000000000000000e+00
	2.554105892930532e-02
	0.000000000000000e+00

 50	2.717533346348671e-05
	1.000000000000000e+00
	2.647998256327019e-02
	0.000000000000000e+00

 51	2.817533346348671e-05
	1.000000000000000e+00
	2.741532115749063e-02
	0.000000000000000e+00

 52	2.917533346348671e-05
	1.000000000000000e+00
	2.834698481034532e-02
	0.000000000000000e+00

 53	3.017533346348671e-05
	1.000000000000000e+00
	2.927488407736869e-02
	0.000000000000000e+00

 54	3.117533346348671e-05
	1.000000000000000e+00
	3.019892997973373e-02
	0.000000000000000e+00

 55	3.217533346348671e-05
	1.000000000000000e+00
	3.111903401267989e-02
	0.000000000000000e+00

 56	3.317533346348671e-05
	1.000000000000000e+00
	3.203510815388498e-02
	0.000000000000000e+00

 57	3.417533346348671e-05
	1.000000000000000e+00
	3.294706487178073e-02
	0.000000000000000e+00

 58	3.517533346348670e-05
	1.000000000000000e+00
	3.385481713381073e-02
	0.000000000000000e+00

 59	3.617533346348670e-05
	1.000000000000000e+00
	3.475827841463044e-02
	0.000000000000000e+00

 60	3.717533346348670e-05
	1.000000000000000e+00
	3.565736270424826e-02
	0.000000000000000e+00

 61	3.817533346348670e-05
	1.000000000000000e+00
	3.655198451610686e-02
	0.000000000000000e+00

 62	3.917533346348669e-05
	1.000000000000000e+00
	3.744205889510425e-02
	0.000000000000000e+00

 63	4.017533346348669e-05
	1.000000000000000e+00
	3.832750142555361e-02
	0.000000000000000e+00

 64	4.117533346348669e-05
	1.000000000000000e+00
	3.920822823908134e-02
	0.000000000000000e+00

 65	4.217533346348668e-05
	1.000000000000000e+00
	4.008415602246248e-02
	0.000000000000000e+00

 66	4.317533346348668e-05
	1.000000000000000e+00
	4.095520202539273e-02
	0.000000000000000e+00

 67	4.417533346348668e-05
	1.000000000000000e+00
	4.182128406819657e-02
	0.000000000000000e+00

 68	4.517533346348668e-05
	1.000000000000000e+00
	4.268232054947061e-02
	0.000000000000000e+00

 69	4.617533346348667e-05
	1.000000000000000e+00
	4.353823045366139e-02
	0.000000000000000e+00

 70	4.717533346348667e-05
	1.000000000000000e+00
	4.438893335857722e-02
	0.000000000000000e+00

 71	4.817533346348667e-05
	1.000000000000000e+00
	4.523434944283313e-02
	0.000000000000000e+00

 72	4.917533346348666e-05
	1.000000000000000e+00
	4.607439949322827e-02
	0.000000000000000e+00

 73	5.017533346348666e-05
	1.000000000000000e+00
	4.690900491205527e-02
	0.000000000000000e+00

 74	5.117533346348666e-05
	1.000000000000000e+00
	4.773808772434066e-02
	0.000000000000000e+00

 75	5.217533346348666e-05
	1.000000000000000e+00
	4.856157058501594e-02
	0.000000000000000e+00

 76	5.317533346348665e-05
	1.000000000000000e+00
	4.937937678601837e-02
	0.000000000000000e+00

 77	5.417533346348665e-05
	1.000000000000000e+00
	5.019143026332112e-02
	0.000000000000000e+00

 78	5.517533346348665e-05
	1.000000000000000e+00
	5.099765560389205e-02
	0.000000000000000e+00

 79	5.617533346348664e-05
	1.000000000000000e+00
	5.179797805258025e-02
	0.000000000000000e+00

 80	5.717533346348664e-05
	1.000000000000000e+00
	5.259232351893021e-02
	0.000000000000000e+00

 81	5.817533346348664e-05
	1.000000000000000e+00
	5.338061858392266e-02
	0.000000000000000e+00

 82	5.917533346348664e-05
	1.000000000000000e+00
	5.416279050664140e-02
	0.000000000000000e+00

 83	6.017533346348663e-05
	1.000000000000000e+00
	5.493876723086598e-02
	0.000000000000000e+00

 84	6.117533346348664e-05
	1.000000000000000e+00
	5.570847739158907e-02
	0.000000000000000e+00

 85	6.217533346348663e-05
	1.000000000000000e+00
	5.647185032145847e-02
	0.000000000000000e+00

 86	6.317533346348663e-05
	1.000000000000000e+00
	5.722881605714283e-02
	0.000000000000000e+00

 87	6.417533346348663e-05
	1.000000000000000e+00
	5.797930534562058e-02
	0.000000000000000e+00

 88	6.517533346348663e-05
	1.000000000000000e+00
	5.872324965039172e-02
	0.000000000000000e+00

 89	6.617533346348662e-05
	1.000000000000000e+00
	5.946058115761176e-02
	0.000000000000000e+00

 90	6.717533346348662e-05
	1.000000000000000e+00
	6.019123278214723e-02
	0.000000000000000e+00

 91	6.817533346348662e-05
	1.000000000000000e+00
	6.091513817355235e-02
	0.000000000000000e+00

 92	6.917533346348662e-05
	1.000000000000000e+00
	6.163223172196628e-02
	0.000000000000000e+00

 93	7.017533346348661e-05
	1.000000000000000e+00
	6.234244856393046e-02
	0.000000000000000e+00

 94	7.117533346348661e-05
	1.000000000000000e+00
	6.304572458812562e-02
	0.000000000000000e+00

 95	7.217533346348661e-05
	1.000000000000000e+00
	6.374199644102771e-02
	0.000000000000000e+00

 96	7.317533346348660e-05
	1.000000000000000e+00
	6.443120153248257e-02
	0.000000000000000e+00

 97	7.417533346348660e-05
	1.000000000000000e+00
	6.511327804119867e-02
	0.000000000000000e+00

 98	7.517533346348660e-05
	1.000000000000000e+00
	6.578816492015754e-02
	0.000000000000000e+00

 99	7.617533346348660e-05
	1.000000000000000e+00
	6.645580190194147e-02
	0.000000000000000e+00

 100	7.717533346348659e-05
	1.000000000000000e+00
	6.711612950397779e-02
	0.000000000000000e+00

 101	7.817533346348659e-05
	1.000000000000000e+00
	6.776908903369963e-02
	0.000000000000000e+00

 102	7.917533346348659e-05
	1.000000000000000e+00
	6.841462259362249e-02
	0.000000000000000e+00

 103	8.017533346348658e-05
	1.000000000000000e+00
	6.905267308633636e-02
	0.000000000000000e+00

 104	8.117533346348658e-05
	1.000000000000000e+00
	6.968318421941271e-02
	0.000000000000000e+00

 105	8.217533346348658e-05
	1.000000000000000e+00
	7.030610051022620e-02
	0.000000000000000e+00

 106	8.317533346348658e-05
	1.000000000000000e+00
	7.092136729069080e-02
	0.000000000000000e+00

 107	8.417533346348657e-05
	1.000000000000000e+00
	7.152893071190948e-02
	0.000000000000000e+00

 108	8.517533346348657e-05
	1.000000000000000e+00
	7.212873774873757e-02
	0.000000000000000e+00

 109	8.617533346348657e-05
	1.000000000000000e+00
	7.272073620425913e-02
	0.000000000000000e+00

 110	8.717533346348656e-05
	1.000000000000000e+00
	7.330487471417620e-02
	0.000000000000000e+00

 111	8.817533346348656e-05
	1.000000000000000e+00
	7.388110275111022e-02
	0.000000000000000e+00

 112	8.917533346348656e-05
	1.000000000000000e+00
	7.444937062881581e-02
	0.000000000000000e+00

 113	9.017533346348656e-05
	1.000000000000000e+00
	7.500962950630595e-02
	0.000000000000000e+00

 114	9.117533346348655e-05
	1.000000000000000e+00
	7.556183139188870e-02
	0.000000000000000e+00

 115	9.217533346348655e-05
	1.000000000000000e+00
	7.610592914711511e-02
	0.000000000000000e+00

 116	9.317533346348655e-05
	1.000000000000000e+00
	7.664187649063775e-02
	0.000000000000000e+00

 117	9.417533346348655e-05
	1.000000000000000e+00
	7.716962800197968e-02
	0.000000000000000e+00

 118	9.517533346348654e-05
	1.000000000000000e+00
	7.768913912521383e-02
	0.000000000000000e+00

 119	9.617533346348654e-05
	1.000000000000000e+00
	7.820036617255206e-02
	0.000000000000000e+00

 120	9.717533346348654e-05
	1.000000000000000e+00
	7.870326632784404e-02
	0.000000000000000e+00

 121	9.817533346348653e-05
	1.000000000000000e+00
	7.919779764998534e-02
	0.000000000000000e+00

 122	9.917533346348653e-05
	1.000000000000000e+00
	7.968391907623484e-02
	0.000000000000000e+00

 123	1.001753334634865e-04
	1.000000000000000e+00
	8.016159042544092e-02
	0.000000000000000e+00

 124	1.011753334634865e-04
	1.000000000000000e+00
	8.063077240117633e-02
	0.000000000000000e+00

 125	1.021753334634865e-04
	1.000000000000000e+00
	8.109142659478151e-02
	0.000000000000000e+00

 126	1.031753334634865e-04
	1.000000000000000e+00
	8.154351548831613e-02
	0.000000000000000e+00

 127	1.041753334634865e-04
	1.000000000000000e+00
	8.198700245741869e-02
	0.000000000000000e+00

 128	1.051753334634865e-04
	1.000000000000000e+00
	8.242185177407393e-02
	0.000000000000000e+00

 129	1.061753334634865e-04
	1.000000000000000e+00
	8.284802860928787e-02
	0.000000000000000e+00

 130	1.071753334634865e-04
	1.000000000000000e+00
	8.326549903567033e-02
	0.000000000000000e+00

 131	1.081753334634865e-04
	1.000000000000000e+00
	8.367423002992470e-02
	0.000000000000000e+00

 132	1.091753334634865e-04
	1.000000000000000e+00
	8.407418947524502e-02
	0.000000000000000e+00

 133	1.101753334634865e-04
	1.000000000000000e+00
	8.446534616361988e-02
	0.000000000000000e+00

 134	1.111753334634865e-04
	1.000000000000000e+00
	8.484766979804333e-02
	0.000000000000000e+00

 135	1.121753334634865e-04
	1.000000000000000e+00
	8.522113099463241e-02
	0.000000000000000e+00

 136	1.131753334634865e-04
	1.000000000000000e+00
	8.558570128465141e-02
	0.000000000000000e+00

 137	1.141753334634865e-04
	1.000000000000000e+00
	8.594135311644249e-02
	0.000000000000000e+00

 138	1.151753334634865e-04
	1.000000000000000e+00
	8.628805985726286e-02
	0.000000000000000e+00

 139	1.161753334634865e-04
	1.000000000000000e+00
	8.662579579502830e-02
	0.000000000000000e+00

 140	1.171753334634865e-04
	1.000000000000000e+00
	8.695453613996271e-02
	0.000000000000000e+00

 141	1.181753334634865e-04
	1.000000000000000e+00
	8.727425702615403e-02
	0.000000000000000e+00

 142	1.191753334634865e-04
	1.000000000000000e+00
	8.758493551301620e-02
	0.000000000000000e+00

 143	1.201753334634865e-04
	1.000000000000000e+00
	8.788654958665713e-02
	0.000000000000000e+00

 144	1.211753334634865e-04
	1.000000000000000e+00
	8.817907816115284e-02
	0.000000000000000e+00

 145	1.221753334634865e-04
	1.000000000000000e+00
	8.846250107972727e-02
	0.000000000000000e+00

 146	1.231753334634865e-04
	1.000000000000000e+00
	8.873679911583846e-02
	0.000000000000000e+00

 147	1.241753334634865e-04
	1.000000000000000e+00
	8.900195397417029e-02
	0.000000000000000e+00

 148	1.251753334634865e-04
	1.000000000000000e+00
	8.925794829153040e-02
	0.000000000000000e+00

 149	1.261753334634865e-04
	1.000000000000000e+00
	8.950476563765387e-02
	0.000000000000000e+00

 150	1.271753334634865e-04
	1.000000000000000e+00
	8.974239051591307e-02
	0.000000000000000e+00

 151	1.281753334634865e-04
	1.000000000000000e+00
	8.997080836393330e-02
	0.000000000000000e+00

 152	1.291753334634865e-04
	1.000000000000000e+00
	9.019000555411448e-02
	0.000000000000000e+00

 153	1.301753334634865e-04
	1.000000000000000e+00
	9.039996939405895e-02
	0.000000000000000e+00

 154	1.311753334634865e-04
	1.000000000000000e+00
	9.060068812690529e-02
	0.000000000000000e+00

 155	1.321753334634865e-04
	1.000000000000000e+00
	9.079215093156838e-02
	0.000000000000000e+00

 156	1.331753334634864e-04
	1.000000000000000e+00
	9.097434792288567e-02
	0.000000000000000e+00

 157	1.341753334634864e-04
	1.000000000000000e+00
	9.114727015166969e-02
	0.000000000000000e+00

 158	1.351753334634864e-04
	1.000000000000000e+00
	9.131090960466706e-02
	0.000000000000000e+00

 159	1.361753334634864e-04
	1.000000000000000e+00
	9.146525920442392e-02
	0.000000000000000e+00

 160	1.371753334634864e-04
	1.000000000000000e+00
	9.161031280905799e-02
	0.000000000000000e+00

 161	1.381753334634864e-04
	1.000000000000000e+00
	9.174606521193744e-02
	0.000000000000000e+00

 162	1.391753334634864e-04
	1.000000000000000e+00
	9.187251214126643e-02
	0.000000000000000e+00

 163	1.401753334634864e-04
	1.000000000000000e+00
	9.198965025957775e-02
	0.000000000000000e+00

 164	1.411753334634864e-04
	1.000000000000000e+00
	9.209747716313256e-02
	0.000000000000000e+00

 165	1.421753334634864e-04
	1.000000000000000e+00
	9.219599138122737e-02
	0.000000000000000e+00

 166	1.431753334634864e-04
	1.000000000000000e+00
	9.228519237540854e-02
	0.000000000000000e+00

 167	1.441753334634864e-04
	1.000000000000000e+00
	9.236508053859424e-02
	0.000000000000000e+00

 168	1.451753334634864e-04
	1.000000000000000e+00
	9.243565719410440e-02
	0.000000000000000e+00

 169	1.461753334634864e-04
	1.000000000000000e+00
	9.249692459459855e-02
	0.000000000000000e+00

 170	1.471753334634864e-04
	1.000000000000000e+00
	9.254888592092167e-02
	0.000000000000000e+00

 171	1.481753334634864e-04
	1.000000000000000e+00
	9.259154528085872e-02
	0.000000000000000e+00

 172	1.491753334634864e-04
	1.000000000000000e+00
	9.262490770779758e-02
	0.000000000000000e+00

 173	1.501753334634864e-04
	1.000000000000000e+00
	9.264897915930083e-02
	0.000000000000000e+00

 174	1.511753334634864e-04
	1.000000000000000e+00
	9.266376651558664e-02
	0.000000000000000e+00

 175	1.521753334634864e-04
	1.000000000000000e+00
	9.266927757791893e-02
	0.000000000000000e+00

 176	1.531753334634864e-04
	1.000000000000000e+00
	9.266552106690709e-02
	0.000000000000000e+00

 177	1.541753334634864e-04
	1.000000000000000e+00
	9.265250662071553e-02
	0.000000000000000e+00

 178	1.551753334634864e-04
	1.000000000000000e+00
	9.263024479318331e-02
	0.000000000000000e+00

 179	1.561753334634864e-04
	1.000000000000000e+00
	9.259874705185404e-02
	0.000000000000000e+00

 180	1.571753334634864e-04
	1.000000000000000e+00
	9.255802577591660e-02
	0.000000000000000e+00

 181	1.581753334634864e-04
	1.000000000000000e+00
	9.250809425405662e-02
	0.000000000000000e+00

 182	1.591753334634864e-04
	1.000000000000000e+00
	9.244896668221932e-02
	0.000000000000000e+00

 183	1.601753334634864e-04
	1.000000000000000e+00
	9.238065816128391e-02
	0.000000000000000e+00

 184	1.611753334634864e-04
	1.000000000000000e+00
	9.230318469464981e-02
	0.000000000000000e+00

 185	1.621753334634864e-04
	1.000000000000000e+00
	9.221656318573507e-02
	0.000000000000000e+00

 186	1.631753334634864e-04
	1.000000000000000e+00
	9.212081143538743e-02
	0.000000000000000e+00

 187	1.641753334634864e-04
	1.000000000000000e+00
	9.201594813920816e-02
	0.000000000000000e+00

 188	1.651753334634864e-04
	1.000000000000000e+00
	9.190199288478922e-02
	0.000000000000000e+00

 189	1.661753334634864e-04
	1.000000000000000e+00
	9.177896614886401e-02
	0.000000000000000e+00

 190	1.671753334634864e-04
	1.000000000000000e+00
	9.164688929437208e-02
	0.000000000000000e+00

 191	1.681753334634864e-04
	1.000000000000000e+00
	9.150578456743823e-02
	0.000000000000000e+00

 192	1.691753334634863e-04
	1.000000000000000e+00
	9.135567509426636e-02
	0.000000000000000e+00

 193	1.701753334634863e-04
	1.000000000000000e+00
	9.119658487794836e-02
	0.000000000000000e+00

 194	1.711753334634863e-04
	1.000000000000000e+00
	9.102853879518880e-02
	0.000000000000000e+00

 195	1.721753334634863e-04
	1.000000000000000e+00
	9.085156259294522e-02
	0.000000000000000e+00

 196	1.731753334634863e-04
	1.000000000000000e+00
	9.066568288498508e-02
	0.000000000000000e+00

 197	1.741753334634863e-04
	1.000000000000000e+00
	9.047092714835946e-02
	0.000000000000000e+00

 198	1.751753334634863e-04
	1.000000000000000e+00
	9.026732371979387e-02
	0.000000000000000e+00

 199	1.761753334634863e-04
	1.000000000000000e+00
	9.005490179199697e-02
	0.000000000000000e+00

 200	1.771753334634863e-04
	1.000000000000000e+00
	8.983369140988720e-02
	0.000000000000000e+00

 201	1.781753334634863e-04
	1.000000000000000e+00
	8.960372346673807e-02
	0.000000000000000e+00

 202	1.791753334634863e-04
	1.000000000000000e+00
	8.936502970024271e-02
	0.000000000000000e+00

 203	1.801753334634863e-04
	1.000000000000000e+00
	8.911764268849756e-02
	0.000000000000000e+00

