Title: * C:\sandbox\spicelib\examples\testfiles\TRAN_rawtest.asc
Date: Tue Feb 11 09:14:37 2025
Plotname: Transient Analysis
Flags: real
No. Variables: 4
No. Points: 63                
Variables:
	0	time	time
	1	IN	voltage
	2	OUT	voltage
	3	VIN#branch	current
Values:
0	0.00000000e+00
	0.00000000e+00
	0.00000000e+00
	0.00000000e+00

1	5.00000000e-11
	5.00000000e-03
	2.49999988e-10
	-4.99999975e-06

2	1.50000000e-10
	1.50000000e-02
	1.74999981e-09
	-1.49999983e-05

3	3.50000000e-10
	3.50000000e-02
	6.74999896e-09
	-3.49999933e-05

4	7.50000000e-10
	7.50000000e-02
	2.87499919e-08
	-7.49999713e-05

5	1.55000000e-09
	1.55000000e-01
	1.20749932e-07
	-1.54999879e-04

6	3.15000000e-09
	3.15000000e-01
	4.96749438e-07
	-3.14999503e-04

7	6.35000000e-09
	6.35000000e-01
	2.01674542e-06
	-6.34997983e-04

8	1.00000000e-08
	1.00000000e+00
	5.00060761e-06
	-9.99994999e-04

9	1.06400000e-08
	1.00000000e+00
	5.64060400e-06
	-9.99994359e-04

10	1.19200000e-08
	1.00000000e+00
	6.92059514e-06
	-9.99993079e-04

11	1.44800000e-08
	1.00000000e+00
	9.48057415e-06
	-9.99990519e-04

12	1.96000000e-08
	1.00000000e+00
	1.46005125e-05
	-9.99985399e-04

13	2.98400000e-08
	1.00000000e+00
	2.48403106e-05
	-9.99975160e-04

14	5.03200000e-08
	1.00000000e+00
	4.53195921e-05
	-9.99954680e-04

15	9.12800000e-08
	1.00000000e+00
	8.62768970e-05
	-9.99913723e-04

16	1.73200000e-07
	1.00000000e+00
	1.68186474e-04
	-9.99831814e-04

17	3.37040000e-07
	1.00000000e+00
	3.31985500e-04
	-9.99668014e-04

18	6.64720000e-07
	1.00000000e+00
	6.59503055e-04
	-9.99340497e-04

19	1.32008000e-06
	1.00000000e+00
	1.31421631e-03
	-9.98685784e-04

20	2.63080000e-06
	1.00000000e+00
	2.62235643e-03
	-9.97377644e-04

21	5.25224000e-06
	1.00000000e+00
	5.23349961e-03
	-9.94766500e-04

22	1.04951200e-05
	1.00000000e+00
	1.04353048e-02
	-9.89564695e-04

23	2.09808800e-05
	1.00000000e+00
	2.07575245e-02
	-9.79242475e-04

24	4.19524000e-05
	1.00000000e+00
	4.10806245e-02
	-9.58919375e-04

25	8.38954400e-05
	1.00000000e+00
	8.04744694e-02
	-9.19525531e-04

26	1.25838480e-04
	1.00000000e+00
	1.18249956e-01
	-8.81750044e-04

27	1.67781520e-04
	1.00000000e+00
	1.54473569e-01
	-8.45526431e-04

28	2.09724560e-04
	1.00000000e+00
	1.89209062e-01
	-8.10790938e-04

29	2.51667600e-04
	1.00000000e+00
	2.22517569e-01
	-7.77482431e-04

30	2.93610640e-04
	1.00000000e+00
	2.54457712e-01
	-7.45542288e-04

31	3.35553680e-04
	1.00000000e+00
	2.85085707e-01
	-7.14914293e-04

32	4.19439760e-04
	1.00000000e+00
	3.42642939e-01
	-6.57357061e-04

33	5.03325840e-04
	1.00000000e+00
	3.95566280e-01
	-6.04433720e-04

34	5.87211920e-04
	1.00000000e+00
	4.44228801e-01
	-5.55771199e-04

35	6.71098000e-04
	1.00000000e+00
	4.88973538e-01
	-5.11026462e-04

36	7.54984080e-04
	1.00000000e+00
	5.30115909e-01
	-4.69884091e-04

37	8.38870160e-04
	1.00000000e+00
	5.67945937e-01
	-4.32054063e-04

38	9.22756240e-04
	1.00000000e+00
	6.02730297e-01
	-3.97269703e-04

39	1.00664232e-03
	1.00000000e+00
	6.34714193e-01
	-3.65285807e-04

40	1.09052840e-03
	1.00000000e+00
	6.64123089e-01
	-3.35876911e-04

41	1.17441448e-03
	1.00000000e+00
	6.91164296e-01
	-3.08835704e-04

42	1.25830056e-03
	1.00000000e+00
	7.16028435e-01
	-2.83971565e-04

43	1.34218664e-03
	1.00000000e+00
	7.38890780e-01
	-2.61109220e-04

44	1.42607272e-03
	1.00000000e+00
	7.59912494e-01
	-2.40087506e-04

45	1.50995880e-03
	1.00000000e+00
	7.79241766e-01
	-2.20758234e-04

46	1.59384488e-03
	1.00000000e+00
	7.97014851e-01
	-2.02985149e-04

47	1.67773096e-03
	1.00000000e+00
	8.13357039e-01
	-1.86642961e-04

48	1.76161704e-03
	1.00000000e+00
	8.28383529e-01
	-1.71616471e-04

49	1.92938920e-03
	1.00000000e+00
	8.54947636e-01
	-1.45052364e-04

50	2.09716136e-03
	1.00000000e+00
	8.77399948e-01
	-1.22600052e-04

51	2.26493352e-03
	1.00000000e+00
	8.96376920e-01
	-1.03623080e-04

52	2.43270568e-03
	1.00000000e+00
	9.12416491e-01
	-8.75835091e-05

53	2.60047784e-03
	1.00000000e+00
	9.25973335e-01
	-7.40266651e-05

54	2.76825000e-03
	1.00000000e+00
	9.37431747e-01
	-6.25682529e-05

55	2.93602216e-03
	1.00000000e+00
	9.47116539e-01
	-5.28834612e-05

56	3.10379432e-03
	1.00000000e+00
	9.55302245e-01
	-4.46977554e-05

57	3.43933864e-03
	1.00000000e+00
	9.68145570e-01
	-3.18544299e-05

58	3.77488296e-03
	1.00000000e+00
	9.77298531e-01
	-2.27014689e-05

59	4.11042728e-03
	1.00000000e+00
	9.83821506e-01
	-1.61784936e-05

60	4.44597160e-03
	1.00000000e+00
	9.88470189e-01
	-1.15298114e-05

61	4.94597160e-03
	1.00000000e+00
	9.93082113e-01
	-6.91788687e-06

62	5.00000000e-03
	1.00000000e+00
	9.93446044e-01
	-6.55395581e-06

